name,type,start_time,duration,"mosi","miso"
"SPI","enable",23.94107414,0.00000002,,
"SPI","result",23.9410747,0.00000236,0x7F,0x00
"SPI","result",23.94107806,0.00000236,0x00,0x00
"SPI","disable",23.94108072,0.00000002,,
"SPI","enable",23.9410811,0.00000002,,
"SPI","result",23.9410817,0.00000236,0x06,0x00
"SPI","result",23.94108482,0.00000236,0x80,0x00
"SPI","disable",23.9410875,0.00000002,,
"SPI","enable",24.04111772,0.00000002,,
"SPI","result",24.04111836,0.00000236,0x7F,0x00
"SPI","result",24.04112158,0.00000236,0x00,0x00
"SPI","disable",24.04112424,0.00000002,,
"SPI","enable",24.04112462,0.00000002,,
"SPI","result",24.04112522,0.00000236,0x03,0x00
"SPI","result",24.04112836,0.00000236,0x10,0x00
"SPI","disable",24.04113104,0.00000002,,
"SPI","enable",24.04113248,0.00000002,,
"SPI","result",24.04113298,0.00000236,0x7F,0x00
"SPI","result",24.04113616,0.00000236,0x00,0x00
"SPI","disable",24.04113888,0.00000002,,
"SPI","enable",24.0411396,0.00000002,,
"SPI","result",24.04114004,0.00000236,0x80,0x00
"SPI","result",24.0411435,0.00000236,0x00,0xE0
"SPI","disable",24.0411465,0.00000002,,
"SPI","enable",24.04114818,0.00000002,,
"SPI","result",24.0411487,0.00000234,0x7F,0x00
"SPI","result",24.04115186,0.00000236,0x00,0x00
"SPI","disable",24.04115458,0.00000002,,
"SPI","enable",24.04115496,0.00000002,,
"SPI","result",24.04115546,0.00000236,0x06,0x00
"SPI","result",24.04115858,0.00000236,0x01,0x00
"SPI","disable",24.04116132,0.00000002,,
"SPI","enable",24.07120722,0.00000002,,
"SPI","result",24.07120784,0.00000236,0x7F,0x00
"SPI","result",24.07121108,0.00000236,0x00,0x00
"SPI","disable",24.07121374,0.00000002,,
"SPI","enable",24.07121412,0.00000002,,
"SPI","result",24.07121472,0.00000236,0x0F,0x00
"SPI","result",24.07121784,0.00000236,0xC0,0x00
"SPI","disable",24.07122052,0.00000002,,
"SPI","enable",24.07122258,0.00000002,,
"SPI","result",24.07122308,0.00000236,0x7F,0x00
"SPI","result",24.07122626,0.00000236,0x00,0x00
"SPI","disable",24.07122896,0.00000002,,
"SPI","enable",24.07122968,0.00000002,,
"SPI","result",24.07123014,0.00000236,0x80,0x00
"SPI","result",24.0712336,0.00000236,0x00,0xE0
"SPI","disable",24.0712366,0.00000002,,
"SPI","enable",24.07123912,0.00000002,,
"SPI","result",24.07123962,0.00000236,0x7F,0x00
"SPI","result",24.0712428,0.00000236,0x00,0x00
"SPI","disable",24.0712455,0.00000002,,
"SPI","enable",24.07124612,0.00000002,,
"SPI","result",24.07124658,0.00000234,0x86,0x00
"SPI","result",24.07124988,0.00000236,0x00,0x01
"SPI","disable",24.0712529,0.00000002,,
"SPI","enable",24.071255,0.00000002,,
"SPI","result",24.0712555,0.00000236,0x7F,0x00
"SPI","result",24.07125868,0.00000236,0x00,0x00
"SPI","disable",24.07126138,0.00000002,,
"SPI","enable",24.07126178,0.00000002,,
"SPI","result",24.07126228,0.00000236,0x06,0x00
"SPI","result",24.0712654,0.00000236,0x09,0x00
"SPI","disable",24.07126814,0.00000002,,
"SPI","enable",24.07126956,0.00000002,,
"SPI","result",24.07127006,0.00000236,0x7F,0x00
"SPI","result",24.07127324,0.00000236,0x00,0x00
"SPI","disable",24.07127594,0.00000002,,
"SPI","enable",24.07127632,0.00000002,,
"SPI","result",24.07127684,0.00000236,0x07,0x00
"SPI","result",24.07127996,0.00000236,0x00,0x00
"SPI","disable",24.07128268,0.00000002,,
"SPI","enable",24.07128618,0.00000002,,
"SPI","result",24.07128668,0.00000236,0x7F,0x00
"SPI","result",24.07128986,0.00000236,0x20,0x00
"SPI","disable",24.07129256,0.00000002,,
"SPI","enable",24.07129294,0.00000002,,
"SPI","result",24.07129344,0.00000236,0x00,0x00
"SPI","result",24.07129658,0.00000234,0x00,0x00
"SPI","disable",24.0712993,0.00000002,,
"SPI","enable",24.0713069,0.00000002,,
"SPI","result",24.0713074,0.00000236,0x7F,0x00
"SPI","result",24.07131058,0.00000236,0x20,0x00
"SPI","disable",24.07131328,0.00000002,,
"SPI","enable",24.07131368,0.00000002,,
"SPI","result",24.07131418,0.00000236,0x10,0x00
"SPI","result",24.0713173,0.00000236,0x00,0x00
"SPI","disable",24.07132004,0.00000002,,
"SPI","enable",24.07132156,0.00000002,,
"SPI","result",24.07132206,0.00000236,0x7F,0x00
"SPI","result",24.07132524,0.00000236,0x20,0x00
"SPI","disable",24.07132796,0.00000002,,
"SPI","enable",24.07132834,0.00000002,,
"SPI","result",24.07132884,0.00000236,0x11,0x00
"SPI","result",24.07133196,0.00000236,0x00,0x00
"SPI","disable",24.0713347,0.00000002,,
"SPI","enable",24.07134002,0.00000002,,
"SPI","result",24.07134052,0.00000236,0x7F,0x00
"SPI","result",24.0713437,0.00000236,0x20,0x00
"SPI","disable",24.07134642,0.00000002,,
"SPI","enable",24.07134704,0.00000002,,
"SPI","result",24.07134748,0.00000236,0x81,0x00
"SPI","result",24.07135078,0.00000236,0x00,0x01
"SPI","disable",24.0713538,0.00000002,,
"SPI","enable",24.07135548,0.00000002,,
"SPI","result",24.07135598,0.00000236,0x7F,0x00
"SPI","result",24.07135914,0.00000236,0x20,0x00
"SPI","disable",24.07136186,0.00000002,,
"SPI","enable",24.07136224,0.00000002,,
"SPI","result",24.07136274,0.00000236,0x01,0x00
"SPI","result",24.07136586,0.00000236,0x29,0x00
"SPI","disable",24.0713686,0.00000002,,
"SPI","enable",24.07137046,0.00000002,,
"SPI","result",24.07137098,0.00000236,0x7F,0x00
"SPI","result",24.07137414,0.00000236,0x20,0x00
"SPI","disable",24.07137686,0.00000002,,
"SPI","enable",24.07137748,0.00000002,,
"SPI","result",24.07137792,0.00000236,0x81,0x00
"SPI","result",24.07138124,0.00000236,0x00,0x29
"SPI","disable",24.07138426,0.00000002,,
"SPI","enable",24.07138586,0.00000002,,
"SPI","result",24.07138636,0.00000236,0x7F,0x00
"SPI","result",24.07138954,0.00000236,0x20,0x00
"SPI","disable",24.07139224,0.00000002,,
"SPI","enable",24.07139264,0.00000002,,
"SPI","result",24.07139314,0.00000236,0x01,0x00
"SPI","result",24.07139626,0.00000236,0x29,0x00
"SPI","disable",24.071399,0.00000002,,
"SPI","enable",24.0714008,0.00000002,,
"SPI","result",24.07140132,0.00000234,0x7F,0x00
"SPI","result",24.07140448,0.00000236,0x20,0x00
"SPI","disable",24.0714072,0.00000002,,
"SPI","enable",24.07140782,0.00000002,,
"SPI","result",24.07140826,0.00000236,0x81,0x00
"SPI","result",24.07141158,0.00000236,0x00,0x29
"SPI","disable",24.0714146,0.00000002,,
"SPI","enable",24.12143836,0.00000002,,
"SPI","result",24.12143898,0.00000236,0x7F,0x00
"SPI","result",24.12144222,0.00000236,0x00,0x00
"SPI","disable",24.12144486,0.00000002,,
"SPI","enable",24.12144526,0.00000002,,
"SPI","result",24.12144586,0.00000236,0x03,0x00
"SPI","result",24.12144898,0.00000236,0x40,0x00
"SPI","disable",24.12145166,0.00000002,,
"SPI","enable",24.12145324,0.00000002,,
"SPI","result",24.12145374,0.00000236,0x7F,0x00
"SPI","result",24.12145692,0.00000236,0x00,0x00
"SPI","disable",24.12145964,0.00000002,,
"SPI","enable",24.12146002,0.00000002,,
"SPI","result",24.12146052,0.00000236,0x69,0x00
"SPI","result",24.12146364,0.00000236,0x0F,0x00
"SPI","disable",24.12146638,0.00000002,,
"SPI","enable",24.1214679,0.00000002,,
"SPI","result",24.12146842,0.00000236,0x7F,0x00
"SPI","result",24.12147158,0.00000236,0x00,0x00
"SPI","disable",24.1214743,0.00000002,,
"SPI","enable",24.12147468,0.00000002,,
"SPI","result",24.12147518,0.00000236,0x67,0x00
"SPI","result",24.1214783,0.00000236,0x0E,0x00
"SPI","disable",24.12148104,0.00000002,,
"SPI","enable",24.12148258,0.00000002,,
"SPI","result",24.12148308,0.00000236,0x7F,0x00
"SPI","result",24.12148624,0.00000236,0x00,0x00
"SPI","disable",24.12148896,0.00000002,,
"SPI","enable",24.12148934,0.00000002,,
"SPI","result",24.12148984,0.00000236,0x68,0x00
"SPI","result",24.12149296,0.00000236,0x0F,0x00
"SPI","disable",24.1214957,0.00000002,,
"SPI","enable",24.12149724,0.00000002,,
"SPI","result",24.12149774,0.00000236,0x7F,0x00
"SPI","result",24.12150092,0.00000236,0x00,0x00
"SPI","disable",24.12150362,0.00000002,,
"SPI","enable",24.121504,0.00000002,,
"SPI","result",24.1215045,0.00000236,0x68,0x00
"SPI","result",24.12150762,0.00000236,0x00,0x00
"SPI","disable",24.12151036,0.00000002,,
"SPI","enable",24.1215119,0.00000002,,
"SPI","result",24.1215124,0.00000236,0x7F,0x00
"SPI","result",24.12151558,0.00000236,0x00,0x00
"SPI","disable",24.12151828,0.00000002,,
"SPI","enable",24.12151866,0.00000002,,
"SPI","result",24.12151916,0.00000236,0x03,0x00
"SPI","result",24.1215223,0.00000236,0x40,0x00
"SPI","disable",24.12152502,0.00000002,,
"SPI","enable",24.12653308,0.00000002,,
"SPI","result",24.12653362,0.00000236,0x7F,0x00
"SPI","result",24.12653688,0.00000236,0x00,0x00
"SPI","disable",24.12653954,0.00000002,,
"SPI","enable",24.12654026,0.00000002,,
"SPI","result",24.1265407,0.00000236,0xF0,0x00
"SPI","result",24.12654418,0.00000236,0x00,0x00
"SPI","result",24.12654754,0.00000236,0x00,0x24
"SPI","disable",24.12655056,0.00000002,,
"SPI","enable",24.13156802,0.00000002,,
"SPI","result",24.13156858,0.00000236,0x7F,0xFF
"SPI","result",24.13157184,0.00000236,0x00,0xFF
"SPI","disable",24.1315745,0.00000002,,
"SPI","enable",24.13157512,0.00000002,,
"SPI","result",24.13157556,0.00000236,0xF0,0xFF
"SPI","result",24.13157886,0.00000236,0x00,0x00
"SPI","result",24.13158222,0.00000236,0x00,0x48
"SPI","disable",24.13158524,0.00000002,,
"SPI","enable",24.13660334,0.00000002,,
"SPI","result",24.1366039,0.00000236,0x7F,0xFF
"SPI","result",24.13660716,0.00000236,0x00,0xFF
"SPI","disable",24.13660982,0.00000002,,
"SPI","enable",24.13661044,0.00000002,,
"SPI","result",24.13661088,0.00000236,0xF0,0xFF
"SPI","result",24.13661418,0.00000236,0x00,0x00
"SPI","result",24.13661754,0.00000236,0x00,0x6C
"SPI","disable",24.13662056,0.00000002,,
"SPI","enable",24.1416387,0.00000002,,
"SPI","result",24.14163924,0.00000236,0x7F,0xFF
"SPI","result",24.1416425,0.00000236,0x00,0xFF
"SPI","disable",24.14164516,0.00000002,,
"SPI","enable",24.14164578,0.00000002,,
"SPI","result",24.14164622,0.00000236,0xF0,0xFF
"SPI","result",24.14164954,0.00000236,0x00,0x00
"SPI","result",24.1416529,0.00000236,0x00,0x90
"SPI","disable",24.14165592,0.00000002,,
"SPI","enable",24.14667402,0.00000002,,
"SPI","result",24.14667456,0.00000236,0x7F,0xFF
"SPI","result",24.14667782,0.00000236,0x00,0xFF
"SPI","disable",24.14668048,0.00000002,,
"SPI","enable",24.1466811,0.00000002,,
"SPI","result",24.14668154,0.00000236,0xF0,0xFF
"SPI","result",24.14668486,0.00000236,0x00,0x00
"SPI","result",24.14668822,0.00000236,0x00,0xAE
"SPI","disable",24.14669124,0.00000002,,
"SPI","enable",24.15171092,0.00000002,,
"SPI","result",24.15171156,0.00000236,0x7F,0xFF
"SPI","result",24.15171478,0.00000236,0x00,0xFF
"SPI","disable",24.15171744,0.00000002,,
"SPI","enable",24.15171816,0.00000002,,
"SPI","result",24.1517186,0.00000236,0xF0,0xFF
"SPI","result",24.15172208,0.00000236,0x00,0x00
"SPI","result",24.15172544,0.00000236,0x00,0xD2
"SPI","disable",24.15172846,0.00000002,,
"SPI","enable",24.15674466,0.00000002,,
"SPI","result",24.1567452,0.00000236,0x7F,0xFF
"SPI","result",24.15674846,0.00000236,0x00,0xFF
"SPI","disable",24.15675112,0.00000002,,
"SPI","enable",24.15675174,0.00000002,,
"SPI","result",24.15675218,0.00000236,0xF0,0xFF
"SPI","result",24.1567555,0.00000236,0x00,0x00
"SPI","result",24.15675886,0.00000234,0x00,0xF6
"SPI","disable",24.15676188,0.00000002,,
"SPI","enable",24.1617799,0.00000002,,
"SPI","result",24.16178044,0.00000236,0x7F,0xFF
"SPI","result",24.1617837,0.00000236,0x00,0xFF
"SPI","disable",24.16178636,0.00000002,,
"SPI","enable",24.16178698,0.00000002,,
"SPI","result",24.16178742,0.00000236,0xF0,0xFF
"SPI","result",24.16179074,0.00000236,0x00,0x01
"SPI","result",24.1617941,0.00000236,0x00,0x1A
"SPI","disable",24.16179712,0.00000002,,
"SPI","enable",24.16681524,0.00000002,,
"SPI","result",24.1668158,0.00000236,0x7F,0xFF
"SPI","result",24.16681904,0.00000236,0x00,0xFF
"SPI","disable",24.1668217,0.00000002,,
"SPI","enable",24.16682232,0.00000002,,
"SPI","result",24.16682278,0.00000236,0xF0,0xFF
"SPI","result",24.16682608,0.00000236,0x00,0x01
"SPI","result",24.16682944,0.00000236,0x00,0x3E
"SPI","disable",24.16683246,0.00000002,,
"SPI","enable",24.17185056,0.00000002,,
"SPI","result",24.17185112,0.00000236,0x7F,0xFF
"SPI","result",24.17185436,0.00000236,0x00,0xFF
"SPI","disable",24.17185702,0.00000002,,
"SPI","enable",24.17185764,0.00000002,,
"SPI","result",24.1718581,0.00000234,0xF0,0xFF
"SPI","result",24.1718614,0.00000236,0x00,0x01
"SPI","result",24.17186476,0.00000236,0x00,0x5C
"SPI","disable",24.17186778,0.00000002,,
"SPI","enable",24.17688588,0.00000002,,
"SPI","result",24.17688644,0.00000234,0x7F,0xFF
"SPI","result",24.17688968,0.00000236,0x00,0xFF
"SPI","disable",24.17689234,0.00000002,,
"SPI","enable",24.17689296,0.00000002,,
"SPI","result",24.17689342,0.00000234,0xF0,0xFF
"SPI","result",24.17689672,0.00000236,0x00,0x01
"SPI","result",24.17690008,0.00000236,0x00,0x80
"SPI","disable",24.1769031,0.00000002,,
"SPI","enable",24.18192278,0.00000002,,
"SPI","result",24.18192342,0.00000236,0x7F,0xFF
"SPI","result",24.18192664,0.00000236,0x00,0xFF
"SPI","disable",24.1819293,0.00000002,,
"SPI","enable",24.18193002,0.00000002,,
"SPI","result",24.18193048,0.00000236,0xF0,0xFF
"SPI","result",24.18193394,0.00000236,0x00,0x01
"SPI","result",24.1819373,0.00000236,0x00,0xA4
"SPI","disable",24.18194032,0.00000002,,
"SPI","enable",24.18695652,0.00000002,,
"SPI","result",24.18695708,0.00000234,0x7F,0xFF
"SPI","result",24.18696032,0.00000236,0x00,0xFF
"SPI","disable",24.18696298,0.00000002,,
"SPI","enable",24.1869636,0.00000002,,
"SPI","result",24.18696404,0.00000236,0xF0,0xFF
"SPI","result",24.18696736,0.00000236,0x00,0x01
"SPI","result",24.18697072,0.00000236,0x00,0xC8
"SPI","disable",24.18697374,0.00000002,,
"SPI","enable",24.19199176,0.00000002,,
"SPI","result",24.19199232,0.00000234,0x7F,0xFF
"SPI","result",24.19199556,0.00000236,0x00,0xFF
"SPI","disable",24.19199822,0.00000002,,
"SPI","enable",24.19199884,0.00000002,,
"SPI","result",24.1919993,0.00000234,0xF0,0xFF
"SPI","result",24.1920026,0.00000236,0x00,0x01
"SPI","result",24.19200596,0.00000236,0x00,0xEC
"SPI","disable",24.19200898,0.00000002,,
"SPI","enable",24.1970271,0.00000002,,
"SPI","result",24.19702766,0.00000236,0x7F,0xFF
"SPI","result",24.19703092,0.00000236,0x00,0xFF
"SPI","disable",24.19703356,0.00000002,,
"SPI","enable",24.19703418,0.00000002,,
"SPI","result",24.19703464,0.00000236,0xF0,0xFF
"SPI","result",24.19703794,0.00000236,0x00,0x02
"SPI","result",24.1970413,0.00000236,0x00,0x0A
"SPI","disable",24.19704432,0.00000002,,
"SPI","enable",24.20206242,0.00000002,,
"SPI","result",24.20206298,0.00000236,0x7F,0xFF
"SPI","result",24.20206624,0.00000236,0x00,0xFF
"SPI","disable",24.20206888,0.00000002,,
"SPI","enable",24.2020695,0.00000002,,
"SPI","result",24.20206996,0.00000236,0xF0,0xFF
"SPI","result",24.20207326,0.00000236,0x00,0x02
"SPI","result",24.20207662,0.00000236,0x00,0x2E
"SPI","disable",24.20207964,0.00000002,,
"SPI","enable",24.20709774,0.00000002,,
"SPI","result",24.2070983,0.00000236,0x7F,0xFF
"SPI","result",24.20710156,0.00000234,0x00,0xFF
"SPI","disable",24.2071042,0.00000002,,
"SPI","enable",24.20710482,0.00000002,,
"SPI","result",24.20710528,0.00000236,0xF0,0xFF
"SPI","result",24.20710858,0.00000236,0x00,0x02
"SPI","result",24.20711194,0.00000236,0x00,0x52
"SPI","disable",24.20711496,0.00000002,,
"SPI","enable",24.21213466,0.00000002,,
"SPI","result",24.21213528,0.00000236,0x7F,0xFF
"SPI","result",24.21213852,0.00000234,0x00,0xFF
"SPI","disable",24.21214116,0.00000002,,
"SPI","enable",24.21214188,0.00000002,,
"SPI","result",24.21214234,0.00000236,0xF0,0xFF
"SPI","result",24.2121458,0.00000236,0x00,0x02
"SPI","result",24.21214916,0.00000236,0x00,0x76
"SPI","disable",24.21215218,0.00000002,,
"SPI","enable",24.21716826,0.00000002,,
"SPI","result",24.2171688,0.00000236,0x7F,0xFF
"SPI","result",24.21717206,0.00000236,0x00,0xFF
"SPI","disable",24.21717472,0.00000002,,
"SPI","enable",24.21717534,0.00000002,,
"SPI","result",24.21717578,0.00000236,0xF0,0xFF
"SPI","result",24.2171791,0.00000234,0x00,0x02
"SPI","result",24.21718246,0.00000234,0x00,0x9A
"SPI","disable",24.21718548,0.00000002,,
"SPI","enable",24.22220362,0.00000002,,
"SPI","result",24.22220418,0.00000236,0x7F,0xFF
"SPI","result",24.22220744,0.00000236,0x00,0xFF
"SPI","disable",24.22221008,0.00000002,,
"SPI","enable",24.2222107,0.00000002,,
"SPI","result",24.22221116,0.00000236,0xF0,0xFF
"SPI","result",24.22221446,0.00000236,0x00,0x02
"SPI","result",24.22221782,0.00000236,0x00,0xB8
"SPI","disable",24.22222084,0.00000002,,
"SPI","enable",24.22723896,0.00000002,,
"SPI","result",24.22723952,0.00000236,0x7F,0xFF
"SPI","result",24.22724278,0.00000236,0x00,0xFF
"SPI","disable",24.22724544,0.00000002,,
"SPI","enable",24.22724606,0.00000002,,
"SPI","result",24.2272465,0.00000236,0xF0,0xFF
"SPI","result",24.2272498,0.00000236,0x00,0x02
"SPI","result",24.22725316,0.00000236,0x00,0xDC
"SPI","disable",24.22725618,0.00000002,,
"SPI","enable",24.23227428,0.00000002,,
"SPI","result",24.23227484,0.00000236,0x7F,0xFF
"SPI","result",24.2322781,0.00000236,0x00,0xFF
"SPI","disable",24.23228076,0.00000002,,
"SPI","enable",24.23228138,0.00000002,,
"SPI","result",24.23228182,0.00000236,0xF0,0xFF
"SPI","result",24.23228512,0.00000236,0x00,0x03
"SPI","result",24.23228848,0.00000236,0x00,0x00
"SPI","disable",24.2322915,0.00000002,,
"SPI","enable",24.2373096,0.00000002,,
"SPI","result",24.23731016,0.00000236,0x7F,0xFF
"SPI","result",24.23731342,0.00000236,0x00,0xFF
"SPI","disable",24.23731608,0.00000002,,
"SPI","enable",24.2373167,0.00000002,,
"SPI","result",24.23731714,0.00000236,0xF0,0xFF
"SPI","result",24.23732044,0.00000236,0x00,0x03
"SPI","result",24.2373238,0.00000236,0x00,0x24
"SPI","disable",24.23732682,0.00000002,,
"SPI","enable",24.24234652,0.00000002,,
"SPI","result",24.24234714,0.00000236,0x7F,0xFF
"SPI","result",24.24235038,0.00000236,0x00,0xFF
"SPI","disable",24.24235304,0.00000002,,
"SPI","enable",24.24235376,0.00000002,,
"SPI","result",24.2423542,0.00000236,0xF0,0xFF
"SPI","result",24.24235766,0.00000236,0x00,0x03
"SPI","result",24.24236102,0.00000236,0x00,0x42
"SPI","disable",24.24236404,0.00000002,,
"SPI","enable",24.24738024,0.00000002,,
"SPI","result",24.2473808,0.00000236,0x7F,0xFF
"SPI","result",24.24738406,0.00000236,0x00,0xFF
"SPI","disable",24.2473867,0.00000002,,
"SPI","enable",24.24738732,0.00000002,,
"SPI","result",24.24738778,0.00000236,0xF0,0xFF
"SPI","result",24.24739108,0.00000236,0x00,0x03
"SPI","result",24.24739444,0.00000236,0x00,0x66
"SPI","disable",24.24739746,0.00000002,,
"SPI","enable",24.25241548,0.00000002,,
"SPI","result",24.25241604,0.00000236,0x7F,0xFF
"SPI","result",24.2524193,0.00000236,0x00,0xFF
"SPI","disable",24.25242196,0.00000002,,
"SPI","enable",24.25242258,0.00000002,,
"SPI","result",24.25242302,0.00000236,0xF0,0xFF
"SPI","result",24.25242632,0.00000236,0x00,0x03
"SPI","result",24.25242968,0.00000236,0x00,0x8A
"SPI","disable",24.2524327,0.00000002,,
"SPI","enable",24.25745084,0.00000002,,
"SPI","result",24.25745138,0.00000236,0x7F,0xFF
"SPI","result",24.25745464,0.00000236,0x00,0xFF
"SPI","disable",24.2574573,0.00000002,,
"SPI","enable",24.25745792,0.00000002,,
"SPI","result",24.25745836,0.00000236,0xF0,0xFF
"SPI","result",24.25746168,0.00000236,0x00,0x03
"SPI","result",24.25746504,0.00000236,0x00,0xAE
"SPI","disable",24.25746806,0.00000002,,
"SPI","enable",24.26248616,0.00000002,,
"SPI","result",24.2624867,0.00000236,0x7F,0xFF
"SPI","result",24.26248996,0.00000236,0x00,0xFF
"SPI","disable",24.26249262,0.00000002,,
"SPI","enable",24.26249324,0.00000002,,
"SPI","result",24.26249368,0.00000236,0xF0,0xFF
"SPI","result",24.262497,0.00000236,0x00,0x03
"SPI","result",24.26250036,0.00000236,0x00,0xD2
"SPI","disable",24.26250338,0.00000002,,
"SPI","enable",24.26752148,0.00000002,,
"SPI","result",24.26752202,0.00000236,0x7F,0xFF
"SPI","result",24.26752528,0.00000236,0x00,0xFF
"SPI","disable",24.26752794,0.00000002,,
"SPI","enable",24.26752856,0.00000002,,
"SPI","result",24.267529,0.00000236,0xF0,0xFF
"SPI","result",24.26753232,0.00000236,0x00,0x03
"SPI","result",24.26753568,0.00000236,0x00,0xF0
"SPI","disable",24.2675387,0.00000002,,
"SPI","enable",24.27255838,0.00000002,,
"SPI","result",24.27255902,0.00000236,0x7F,0xFF
"SPI","result",24.27256224,0.00000236,0x00,0xFF
"SPI","disable",24.2725649,0.00000002,,
"SPI","enable",24.27256562,0.00000002,,
"SPI","result",24.27256606,0.00000236,0xF0,0xFF
"SPI","result",24.27256954,0.00000236,0x00,0x04
"SPI","result",24.2725729,0.00000236,0x00,0x14
"SPI","disable",24.27257592,0.00000002,,
"SPI","enable",24.27759212,0.00000002,,
"SPI","result",24.27759266,0.00000236,0x7F,0xFF
"SPI","result",24.27759592,0.00000236,0x00,0xFF
"SPI","disable",24.27759858,0.00000002,,
"SPI","enable",24.2775992,0.00000002,,
"SPI","result",24.27759964,0.00000236,0xF0,0xFF
"SPI","result",24.27760296,0.00000234,0x00,0x04
"SPI","result",24.27760632,0.00000234,0x00,0x38
"SPI","disable",24.27760932,0.00000002,,
"SPI","enable",24.28262736,0.00000002,,
"SPI","result",24.2826279,0.00000236,0x7F,0xFF
"SPI","result",24.28263116,0.00000236,0x00,0xFF
"SPI","disable",24.28263382,0.00000002,,
"SPI","enable",24.28263444,0.00000002,,
"SPI","result",24.28263488,0.00000236,0xF0,0xFF
"SPI","result",24.2826382,0.00000236,0x00,0x04
"SPI","result",24.28264156,0.00000236,0x00,0x5C
"SPI","disable",24.28264458,0.00000002,,
"SPI","enable",24.2876627,0.00000002,,
"SPI","result",24.28766326,0.00000236,0x7F,0xFF
"SPI","result",24.2876665,0.00000236,0x00,0xFF
"SPI","disable",24.28766916,0.00000002,,
"SPI","enable",24.28766978,0.00000002,,
"SPI","result",24.28767024,0.00000234,0xF0,0xFF
"SPI","result",24.28767354,0.00000236,0x00,0x04
"SPI","result",24.2876769,0.00000236,0x00,0x80
"SPI","disable",24.28767992,0.00000002,,
"SPI","enable",24.29269802,0.00000002,,
"SPI","result",24.29269858,0.00000234,0x7F,0xFF
"SPI","result",24.29270182,0.00000236,0x00,0xFF
"SPI","disable",24.29270448,0.00000002,,
"SPI","enable",24.2927051,0.00000002,,
"SPI","result",24.29270554,0.00000236,0xF0,0xFF
"SPI","result",24.29270886,0.00000236,0x00,0x04
"SPI","result",24.29271222,0.00000236,0x00,0x9E
"SPI","disable",24.29271524,0.00000002,,
"SPI","enable",24.29773334,0.00000002,,
"SPI","result",24.2977339,0.00000234,0x7F,0xFF
"SPI","result",24.29773714,0.00000236,0x00,0xFF
"SPI","disable",24.2977398,0.00000002,,
"SPI","enable",24.29774042,0.00000002,,
"SPI","result",24.29774086,0.00000236,0xF0,0xFF
"SPI","result",24.29774418,0.00000236,0x00,0x04
"SPI","result",24.29774754,0.00000236,0x00,0xC2
"SPI","disable",24.29775056,0.00000002,,
"SPI","enable",24.30277032,0.00000002,,
"SPI","result",24.30277096,0.00000236,0x7F,0xFF
"SPI","result",24.30277418,0.00000236,0x00,0xFF
"SPI","disable",24.30277684,0.00000002,,
"SPI","enable",24.30277756,0.00000002,,
"SPI","result",24.30277802,0.00000236,0xF0,0xFF
"SPI","result",24.30278148,0.00000236,0x00,0x04
"SPI","result",24.30278484,0.00000236,0x00,0xE6
"SPI","disable",24.30278786,0.00000002,,
"SPI","enable",24.3078039,0.00000002,,
"SPI","result",24.30780446,0.00000234,0x7F,0xFF
"SPI","result",24.3078077,0.00000236,0x00,0xFF
"SPI","disable",24.30781036,0.00000002,,
"SPI","enable",24.30781098,0.00000002,,
"SPI","result",24.30781144,0.00000234,0xF0,0xFF
"SPI","result",24.30781474,0.00000236,0x00,0x05
"SPI","result",24.3078181,0.00000236,0x00,0x0A
"SPI","disable",24.30782112,0.00000002,,
"SPI","enable",24.31283916,0.00000002,,
"SPI","result",24.31283972,0.00000236,0x7F,0xFF
"SPI","result",24.31284298,0.00000236,0x00,0xFF
"SPI","disable",24.31284562,0.00000002,,
"SPI","enable",24.31284624,0.00000002,,
"SPI","result",24.3128467,0.00000236,0xF0,0xFF
"SPI","result",24.31285,0.00000236,0x00,0x05
"SPI","result",24.31285336,0.00000236,0x00,0x2E
"SPI","disable",24.31285638,0.00000002,,
"SPI","enable",24.31787448,0.00000002,,
"SPI","result",24.31787504,0.00000236,0x7F,0xFF
"SPI","result",24.3178783,0.00000236,0x00,0xFF
"SPI","disable",24.31788094,0.00000002,,
"SPI","enable",24.31788156,0.00000002,,
"SPI","result",24.31788202,0.00000236,0xF0,0xFF
"SPI","result",24.31788532,0.00000236,0x00,0x05
"SPI","result",24.31788868,0.00000236,0x00,0x4C
"SPI","disable",24.3178917,0.00000002,,
"SPI","enable",24.3229098,0.00000002,,
"SPI","result",24.32291036,0.00000236,0x7F,0xFF
"SPI","result",24.32291362,0.00000236,0x00,0xFF
"SPI","disable",24.32291626,0.00000002,,
"SPI","enable",24.32291688,0.00000002,,
"SPI","result",24.32291734,0.00000236,0xF0,0xFF
"SPI","result",24.32292064,0.00000236,0x00,0x05
"SPI","result",24.322924,0.00000236,0x00,0x70
"SPI","disable",24.32292702,0.00000002,,
"SPI","enable",24.32794512,0.00000002,,
"SPI","result",24.32794568,0.00000236,0x7F,0xFF
"SPI","result",24.32794894,0.00000236,0x00,0xFF
"SPI","disable",24.32795158,0.00000002,,
"SPI","enable",24.3279522,0.00000002,,
"SPI","result",24.32795266,0.00000236,0xF0,0xFF
"SPI","result",24.32795596,0.00000236,0x00,0x05
"SPI","result",24.32795932,0.00000236,0x00,0x94
"SPI","disable",24.32796234,0.00000002,,
"SPI","enable",24.33298212,0.00000002,,
"SPI","result",24.33298274,0.00000236,0x7F,0xFF
"SPI","result",24.33298598,0.00000234,0x00,0xFF
"SPI","disable",24.33298862,0.00000002,,
"SPI","enable",24.33298934,0.00000002,,
"SPI","result",24.3329898,0.00000236,0xF0,0xFF
"SPI","result",24.33299326,0.00000236,0x00,0x05
"SPI","result",24.33299662,0.00000236,0x00,0xB8
"SPI","disable",24.33299964,0.00000002,,
"SPI","enable",24.33801584,0.00000002,,
"SPI","result",24.3380164,0.00000236,0x7F,0xFF
"SPI","result",24.33801964,0.00000236,0x00,0xFF
"SPI","disable",24.3380223,0.00000002,,
"SPI","enable",24.33802292,0.00000002,,
"SPI","result",24.33802338,0.00000236,0xF0,0xFF
"SPI","result",24.33802668,0.00000236,0x00,0x05
"SPI","result",24.33803004,0.00000236,0x00,0xDC
"SPI","disable",24.33803306,0.00000002,,
"SPI","enable",24.3430511,0.00000002,,
"SPI","result",24.34305166,0.00000236,0x7F,0xFF
"SPI","result",24.34305492,0.00000236,0x00,0xFF
"SPI","disable",24.34305758,0.00000002,,
"SPI","enable",24.3430582,0.00000002,,
"SPI","result",24.34305864,0.00000236,0xF0,0xFF
"SPI","result",24.34306194,0.00000236,0x00,0x05
"SPI","result",24.3430653,0.00000236,0x00,0xFA
"SPI","disable",24.34306832,0.00000002,,
"SPI","enable",24.34808642,0.00000002,,
"SPI","result",24.34808698,0.00000236,0x7F,0xFF
"SPI","result",24.34809024,0.00000236,0x00,0xFF
"SPI","disable",24.3480929,0.00000002,,
"SPI","enable",24.34809352,0.00000002,,
"SPI","result",24.34809396,0.00000236,0xF0,0xFF
"SPI","result",24.34809726,0.00000236,0x00,0x06
"SPI","result",24.34810062,0.00000236,0x00,0x1E
"SPI","disable",24.34810364,0.00000002,,
"SPI","enable",24.35312174,0.00000002,,
"SPI","result",24.3531223,0.00000236,0x7F,0xFF
"SPI","result",24.35312556,0.00000236,0x00,0xFF
"SPI","disable",24.35312822,0.00000002,,
"SPI","enable",24.35312884,0.00000002,,
"SPI","result",24.35312928,0.00000236,0xF0,0xFF
"SPI","result",24.35313258,0.00000236,0x00,0x06
"SPI","result",24.35313594,0.00000236,0x00,0x42
"SPI","disable",24.35313896,0.00000002,,
"SPI","enable",24.35815706,0.00000002,,
"SPI","result",24.35815762,0.00000236,0x7F,0xFF
"SPI","result",24.35816088,0.00000236,0x00,0xFF
"SPI","disable",24.35816352,0.00000002,,
"SPI","enable",24.35816414,0.00000002,,
"SPI","result",24.3581646,0.00000236,0xF0,0xFF
"SPI","result",24.3581679,0.00000236,0x00,0x06
"SPI","result",24.35817126,0.00000236,0x00,0x66
"SPI","disable",24.35817428,0.00000002,,
"SPI","enable",24.36319398,0.00000002,,
"SPI","result",24.3631946,0.00000236,0x7F,0xFF
"SPI","result",24.36319784,0.00000236,0x00,0xFF
"SPI","disable",24.36320048,0.00000002,,
"SPI","enable",24.36320122,0.00000002,,
"SPI","result",24.36320166,0.00000236,0xF0,0xFF
"SPI","result",24.36320512,0.00000236,0x00,0x06
"SPI","result",24.36320848,0.00000236,0x00,0x8A
"SPI","disable",24.3632115,0.00000002,,
"SPI","enable",24.3682277,0.00000002,,
"SPI","result",24.36822826,0.00000236,0x7F,0xFF
"SPI","result",24.36823152,0.00000236,0x00,0xFF
"SPI","disable",24.36823416,0.00000002,,
"SPI","enable",24.36823478,0.00000002,,
"SPI","result",24.36823524,0.00000236,0xF0,0xFF
"SPI","result",24.36823854,0.00000236,0x00,0x06
"SPI","result",24.3682419,0.00000236,0x00,0xA8
"SPI","disable",24.36824492,0.00000002,,
"SPI","enable",24.37326298,0.00000002,,
"SPI","result",24.37326352,0.00000236,0x7F,0xFF
"SPI","result",24.37326678,0.00000236,0x00,0xFF
"SPI","disable",24.37326944,0.00000002,,
"SPI","enable",24.37327006,0.00000002,,
"SPI","result",24.3732705,0.00000236,0xF0,0xFF
"SPI","result",24.37327382,0.00000236,0x00,0x06
"SPI","result",24.37327718,0.00000236,0x00,0xCC
"SPI","disable",24.3732802,0.00000002,,
"SPI","enable",24.3782983,0.00000002,,
"SPI","result",24.37829884,0.00000236,0x7F,0xFF
"SPI","result",24.3783021,0.00000236,0x00,0xFF
"SPI","disable",24.37830476,0.00000002,,
"SPI","enable",24.37830538,0.00000002,,
"SPI","result",24.37830582,0.00000236,0xF0,0xFF
"SPI","result",24.37830914,0.00000236,0x00,0x06
"SPI","result",24.3783125,0.00000236,0x00,0xF0
"SPI","disable",24.37831552,0.00000002,,
"SPI","enable",24.38333362,0.00000002,,
"SPI","result",24.38333416,0.00000236,0x7F,0xFF
"SPI","result",24.38333742,0.00000236,0x00,0xFF
"SPI","disable",24.38334008,0.00000002,,
"SPI","enable",24.3833407,0.00000002,,
"SPI","result",24.38334114,0.00000236,0xF0,0xFF
"SPI","result",24.38334446,0.00000236,0x00,0x07
"SPI","result",24.38334782,0.00000236,0x00,0x14
"SPI","disable",24.38335084,0.00000002,,
"SPI","enable",24.38836894,0.00000002,,
"SPI","result",24.38836948,0.00000236,0x7F,0xFF
"SPI","result",24.38837274,0.00000236,0x00,0xFF
"SPI","disable",24.3883754,0.00000002,,
"SPI","enable",24.38837602,0.00000002,,
"SPI","result",24.38837646,0.00000236,0xF0,0xFF
"SPI","result",24.38837978,0.00000236,0x00,0x07
"SPI","result",24.38838314,0.00000234,0x00,0x32
"SPI","disable",24.38838616,0.00000002,,
"SPI","enable",24.39340584,0.00000002,,
"SPI","result",24.39340648,0.00000234,0x7F,0xFF
"SPI","result",24.3934097,0.00000236,0x00,0xFF
"SPI","disable",24.39341236,0.00000002,,
"SPI","enable",24.39341308,0.00000002,,
"SPI","result",24.39341352,0.00000236,0xF0,0xFF
"SPI","result",24.393417,0.00000236,0x00,0x07
"SPI","result",24.39342036,0.00000236,0x00,0x56
"SPI","disable",24.39342338,0.00000002,,
"SPI","enable",24.39843958,0.00000002,,
"SPI","result",24.39844012,0.00000236,0x7F,0xFF
"SPI","result",24.39844338,0.00000236,0x00,0xFF
"SPI","disable",24.39844604,0.00000002,,
"SPI","enable",24.39844666,0.00000002,,
"SPI","result",24.3984471,0.00000236,0xF0,0xFF
"SPI","result",24.39845042,0.00000234,0x00,0x07
"SPI","result",24.39845376,0.00000236,0x00,0x7A
"SPI","disable",24.39845678,0.00000002,,
"SPI","enable",24.40347484,0.00000002,,
"SPI","result",24.4034754,0.00000234,0x7F,0xFF
"SPI","result",24.40347864,0.00000236,0x00,0xFF
"SPI","disable",24.4034813,0.00000002,,
"SPI","enable",24.40348192,0.00000002,,
"SPI","result",24.40348238,0.00000234,0xF0,0xFF
"SPI","result",24.40348568,0.00000236,0x00,0x07
"SPI","result",24.40348904,0.00000236,0x00,0x9E
"SPI","disable",24.40349206,0.00000002,,
"SPI","enable",24.40851016,0.00000002,,
"SPI","result",24.40851072,0.00000234,0x7F,0xFF
"SPI","result",24.40851396,0.00000236,0x00,0xFF
"SPI","disable",24.40851662,0.00000002,,
"SPI","enable",24.40851724,0.00000002,,
"SPI","result",24.40851768,0.00000236,0xF0,0xFF
"SPI","result",24.408521,0.00000236,0x00,0x07
"SPI","result",24.40852436,0.00000236,0x00,0xC2
"SPI","disable",24.40852738,0.00000002,,
"SPI","enable",24.41354548,0.00000002,,
"SPI","result",24.41354604,0.00000234,0x7F,0xFF
"SPI","result",24.41354928,0.00000236,0x00,0xFF
"SPI","disable",24.41355194,0.00000002,,
"SPI","enable",24.41355256,0.00000002,,
"SPI","result",24.413553,0.00000236,0xF0,0xFF
"SPI","result",24.41355632,0.00000236,0x00,0x07
"SPI","result",24.41355968,0.00000236,0x00,0xE0
"SPI","disable",24.4135627,0.00000002,,
"SPI","enable",24.4185808,0.00000002,,
"SPI","result",24.41858136,0.00000234,0x7F,0xFF
"SPI","result",24.4185846,0.00000236,0x00,0xFF
"SPI","disable",24.41858726,0.00000002,,
"SPI","enable",24.41858788,0.00000002,,
"SPI","result",24.41858832,0.00000236,0xF0,0xFF
"SPI","result",24.41859164,0.00000236,0x00,0x08
"SPI","result",24.418595,0.00000236,0x00,0x04
"SPI","disable",24.41859802,0.00000002,,
"SPI","enable",24.4236177,0.00000002,,
"SPI","result",24.42361834,0.00000236,0x7F,0xFF
"SPI","result",24.42362156,0.00000236,0x00,0xFF
"SPI","disable",24.42362422,0.00000002,,
"SPI","enable",24.42362494,0.00000002,,
"SPI","result",24.4236254,0.00000236,0xF0,0xFF
"SPI","result",24.42362886,0.00000236,0x00,0x08
"SPI","result",24.42363222,0.00000236,0x00,0x28
"SPI","disable",24.42363524,0.00000002,,
"SPI","enable",24.4286513,0.00000002,,
"SPI","result",24.42865186,0.00000236,0x7F,0xFF
"SPI","result",24.42865512,0.00000236,0x00,0xFF
"SPI","disable",24.42865776,0.00000002,,
"SPI","enable",24.42865838,0.00000002,,
"SPI","result",24.42865884,0.00000236,0xF0,0xFF
"SPI","result",24.42866214,0.00000236,0x00,0x08
"SPI","result",24.4286655,0.00000236,0x00,0x4C
"SPI","disable",24.42866852,0.00000002,,
"SPI","enable",24.4336867,0.00000002,,
"SPI","result",24.43368726,0.00000236,0x7F,0xFF
"SPI","result",24.43369052,0.00000234,0x00,0xFF
"SPI","disable",24.43369316,0.00000002,,
"SPI","enable",24.43369378,0.00000002,,
"SPI","result",24.43369424,0.00000236,0xF0,0xFF
"SPI","result",24.43369754,0.00000236,0x00,0x08
"SPI","result",24.4337009,0.00000236,0x00,0x70
"SPI","disable",24.43370392,0.00000002,,
"SPI","enable",24.43872202,0.00000002,,
"SPI","result",24.43872258,0.00000236,0x7F,0xFF
"SPI","result",24.43872584,0.00000234,0x00,0xFF
"SPI","disable",24.43872848,0.00000002,,
"SPI","enable",24.4387291,0.00000002,,
"SPI","result",24.43872956,0.00000236,0xF0,0xFF
"SPI","result",24.43873286,0.00000236,0x00,0x08
"SPI","result",24.43873622,0.00000236,0x00,0x8E
"SPI","disable",24.43873924,0.00000002,,
"SPI","enable",24.44375734,0.00000002,,
"SPI","result",24.4437579,0.00000236,0x7F,0xFF
"SPI","result",24.44376116,0.00000234,0x00,0xFF
"SPI","disable",24.4437638,0.00000002,,
"SPI","enable",24.44376442,0.00000002,,
"SPI","result",24.44376488,0.00000236,0xF0,0xFF
"SPI","result",24.44376818,0.00000236,0x00,0x08
"SPI","result",24.44377154,0.00000236,0x00,0xB2
"SPI","disable",24.44377456,0.00000002,,
"SPI","enable",24.44879266,0.00000002,,
"SPI","result",24.44879322,0.00000236,0x7F,0xFF
"SPI","result",24.44879648,0.00000234,0x00,0xFF
"SPI","disable",24.44879912,0.00000002,,
"SPI","enable",24.44879974,0.00000002,,
"SPI","result",24.4488002,0.00000236,0xF0,0xFF
"SPI","result",24.4488035,0.00000236,0x00,0x08
"SPI","result",24.44880686,0.00000236,0x00,0xD6
"SPI","disable",24.44880988,0.00000002,,
"SPI","enable",24.45382952,0.00000002,,
"SPI","result",24.45383014,0.00000236,0x7F,0xFF
"SPI","result",24.45383338,0.00000236,0x00,0xFF
"SPI","disable",24.45383604,0.00000002,,
"SPI","enable",24.45383676,0.00000002,,
"SPI","result",24.4538372,0.00000236,0xF0,0xFF
"SPI","result",24.45384066,0.00000236,0x00,0x08
"SPI","result",24.45384402,0.00000236,0x00,0xFA
"SPI","disable",24.45384704,0.00000002,,
"SPI","enable",24.45886324,0.00000002,,
"SPI","result",24.4588638,0.00000236,0x7F,0xFF
"SPI","result",24.45886706,0.00000236,0x00,0xFF
"SPI","disable",24.45886972,0.00000002,,
"SPI","enable",24.45887034,0.00000002,,
"SPI","result",24.45887078,0.00000236,0xF0,0xFF
"SPI","result",24.45887408,0.00000236,0x00,0x09
"SPI","result",24.45887744,0.00000236,0x00,0x1E
"SPI","disable",24.45888046,0.00000002,,
"SPI","enable",24.4638985,0.00000002,,
"SPI","result",24.46389904,0.00000236,0x7F,0xFF
"SPI","result",24.4639023,0.00000236,0x00,0xFF
"SPI","disable",24.46390496,0.00000002,,
"SPI","enable",24.46390558,0.00000002,,
"SPI","result",24.46390602,0.00000236,0xF0,0xFF
"SPI","result",24.46390932,0.00000236,0x00,0x09
"SPI","result",24.46391268,0.00000236,0x00,0x3C
"SPI","disable",24.4639157,0.00000002,,
"SPI","enable",24.46893382,0.00000002,,
"SPI","result",24.46893436,0.00000236,0x7F,0xFF
"SPI","result",24.46893762,0.00000236,0x00,0xFF
"SPI","disable",24.46894028,0.00000002,,
"SPI","enable",24.4689409,0.00000002,,
"SPI","result",24.46894134,0.00000236,0xF0,0xFF
"SPI","result",24.46894464,0.00000236,0x00,0x09
"SPI","result",24.468948,0.00000236,0x00,0x60
"SPI","disable",24.46895102,0.00000002,,
"SPI","enable",24.47396912,0.00000002,,
"SPI","result",24.47396968,0.00000236,0x7F,0xFF
"SPI","result",24.47397294,0.00000236,0x00,0xFF
"SPI","disable",24.4739756,0.00000002,,
"SPI","enable",24.47397622,0.00000002,,
"SPI","result",24.47397666,0.00000236,0xF0,0xFF
"SPI","result",24.47397996,0.00000236,0x00,0x09
"SPI","result",24.47398332,0.00000236,0x00,0x84
"SPI","disable",24.47398634,0.00000002,,
"SPI","enable",24.47903598,0.00000002,,
"SPI","result",24.47903662,0.00000236,0x7F,0xFF
"SPI","result",24.47903984,0.00000236,0x00,0xFF
"SPI","disable",24.4790425,0.00000002,,
"SPI","enable",24.47904322,0.00000002,,
"SPI","result",24.47904368,0.00000236,0xF0,0xFF
"SPI","result",24.47904714,0.00000236,0x00,0x09
"SPI","result",24.4790505,0.00000236,0x00,0xA8
"SPI","disable",24.47905352,0.00000002,,
"SPI","enable",24.48407196,0.00000002,,
"SPI","result",24.48407258,0.00000236,0x7F,0xFF
"SPI","result",24.48407582,0.00000236,0x00,0xFF
"SPI","disable",24.48407848,0.00000002,,
"SPI","enable",24.4840792,0.00000002,,
"SPI","result",24.48407964,0.00000236,0xF0,0xFF
"SPI","result",24.4840831,0.00000236,0x00,0x09
"SPI","result",24.48408646,0.00000236,0x00,0xCC
"SPI","disable",24.48408948,0.00000002,,
"SPI","enable",24.48910556,0.00000002,,
"SPI","result",24.4891061,0.00000236,0x7F,0xFF
"SPI","result",24.48910936,0.00000236,0x00,0xFF
"SPI","disable",24.48911202,0.00000002,,
"SPI","enable",24.48911264,0.00000002,,
"SPI","result",24.48911308,0.00000236,0xF0,0xFF
"SPI","result",24.4891164,0.00000236,0x00,0x09
"SPI","result",24.48911976,0.00000236,0x00,0xEA
"SPI","disable",24.48912278,0.00000002,,
"SPI","enable",24.49414096,0.00000002,,
"SPI","result",24.4941415,0.00000236,0x7F,0xFF
"SPI","result",24.49414476,0.00000236,0x00,0xFF
"SPI","disable",24.49414742,0.00000002,,
"SPI","enable",24.49414804,0.00000002,,
"SPI","result",24.49414848,0.00000236,0xF0,0xFF
"SPI","result",24.4941518,0.00000236,0x00,0x0A
"SPI","result",24.49415516,0.00000236,0x00,0x0E
"SPI","disable",24.49415818,0.00000002,,
"SPI","enable",24.49917614,0.00000002,,
"SPI","result",24.4991767,0.00000236,0x7F,0xFF
"SPI","result",24.49917996,0.00000234,0x00,0xFF
"SPI","disable",24.4991826,0.00000002,,
"SPI","enable",24.49918322,0.00000002,,
"SPI","result",24.49918368,0.00000236,0xF0,0xFF
"SPI","result",24.49918698,0.00000236,0x00,0x0A
"SPI","result",24.49919034,0.00000236,0x00,0x32
"SPI","disable",24.49919336,0.00000002,,
"SPI","enable",24.50421146,0.00000002,,
"SPI","result",24.50421202,0.00000236,0x7F,0xFF
"SPI","result",24.50421528,0.00000234,0x00,0xFF
"SPI","disable",24.50421792,0.00000002,,
"SPI","enable",24.50421854,0.00000002,,
"SPI","result",24.504219,0.00000236,0xF0,0xFF
"SPI","result",24.5042223,0.00000236,0x00,0x0A
"SPI","result",24.50422566,0.00000236,0x00,0x56
"SPI","disable",24.50422868,0.00000002,,
"SPI","enable",24.50925524,0.00000002,,
"SPI","result",24.50925588,0.00000236,0x7F,0xFF
"SPI","result",24.5092591,0.00000236,0x00,0xFF
"SPI","disable",24.50926176,0.00000002,,
"SPI","enable",24.50926248,0.00000002,,
"SPI","result",24.50926294,0.00000236,0xF0,0xFF
"SPI","result",24.5092664,0.00000236,0x00,0x0A
"SPI","result",24.50926976,0.00000236,0x00,0x7A
"SPI","disable",24.50927278,0.00000002,,
"SPI","enable",24.51428376,0.00000002,,
"SPI","result",24.5142844,0.00000236,0x7F,0xFF
"SPI","result",24.51428762,0.00000236,0x00,0xFF
"SPI","disable",24.51429028,0.00000002,,
"SPI","enable",24.514291,0.00000002,,
"SPI","result",24.51429146,0.00000236,0xF0,0xFF
"SPI","result",24.51429492,0.00000236,0x00,0x0A
"SPI","result",24.51429828,0.00000236,0x00,0x98
"SPI","disable",24.5143013,0.00000002,,
"SPI","enable",24.5193175,0.00000002,,
"SPI","result",24.51931806,0.00000236,0x7F,0xFF
"SPI","result",24.5193213,0.00000236,0x00,0xFF
"SPI","disable",24.51932396,0.00000002,,
"SPI","enable",24.51932458,0.00000002,,
"SPI","result",24.51932504,0.00000234,0xF0,0xFF
"SPI","result",24.51932834,0.00000236,0x00,0x0A
"SPI","result",24.5193317,0.00000236,0x00,0xBC
"SPI","disable",24.51933472,0.00000002,,
"SPI","enable",24.52435274,0.00000002,,
"SPI","result",24.5243533,0.00000236,0x7F,0xFF
"SPI","result",24.52435654,0.00000236,0x00,0xFF
"SPI","disable",24.5243592,0.00000002,,
"SPI","enable",24.52435982,0.00000002,,
"SPI","result",24.52436028,0.00000236,0xF0,0xFF
"SPI","result",24.52436358,0.00000236,0x00,0x0A
"SPI","result",24.52436694,0.00000236,0x00,0xE0
"SPI","disable",24.52436996,0.00000002,,
"SPI","enable",24.52938806,0.00000002,,
"SPI","result",24.52938862,0.00000236,0x7F,0xFF
"SPI","result",24.52939186,0.00000236,0x00,0xFF
"SPI","disable",24.52939452,0.00000002,,
"SPI","enable",24.52939514,0.00000002,,
"SPI","result",24.5293956,0.00000236,0xF0,0xFF
"SPI","result",24.5293989,0.00000236,0x00,0x0B
"SPI","result",24.52940226,0.00000236,0x00,0x04
"SPI","disable",24.52940528,0.00000002,,
"SPI","enable",24.53442338,0.00000002,,
"SPI","result",24.53442394,0.00000236,0x7F,0xFF
"SPI","result",24.53442718,0.00000236,0x00,0xFF
"SPI","disable",24.53442984,0.00000002,,
"SPI","enable",24.53443046,0.00000002,,
"SPI","result",24.53443092,0.00000236,0xF0,0xFF
"SPI","result",24.53443422,0.00000236,0x00,0x0B
"SPI","result",24.53443758,0.00000236,0x00,0x28
"SPI","disable",24.5344406,0.00000002,,
"SPI","enable",24.53959178,0.00000002,,
"SPI","result",24.5395924,0.00000236,0x7F,0xFF
"SPI","result",24.53959564,0.00000236,0x00,0xFF
"SPI","disable",24.53959828,0.00000002,,
"SPI","enable",24.53959902,0.00000002,,
"SPI","result",24.53959946,0.00000236,0xF0,0xFF
"SPI","result",24.53960292,0.00000236,0x00,0x0B
"SPI","result",24.53960628,0.00000236,0x00,0x46
"SPI","disable",24.5396093,0.00000002,,
"SPI","enable",24.54461612,0.00000002,,
"SPI","result",24.54461668,0.00000236,0x7F,0xFF
"SPI","result",24.54461994,0.00000236,0x00,0xFF
"SPI","disable",24.5446226,0.00000002,,
"SPI","enable",24.54462322,0.00000002,,
"SPI","result",24.54462366,0.00000236,0xF0,0xFF
"SPI","result",24.54462696,0.00000236,0x00,0x0B
"SPI","result",24.54463032,0.00000236,0x00,0x6A
"SPI","disable",24.54463334,0.00000002,,
"SPI","enable",24.54965138,0.00000002,,
"SPI","result",24.54965192,0.00000236,0x7F,0xFF
"SPI","result",24.54965518,0.00000236,0x00,0xFF
"SPI","disable",24.54965784,0.00000002,,
"SPI","enable",24.54965846,0.00000002,,
"SPI","result",24.5496589,0.00000236,0xF0,0xFF
"SPI","result",24.5496622,0.00000236,0x00,0x0B
"SPI","result",24.54966556,0.00000236,0x00,0x8E
"SPI","disable",24.54966858,0.00000002,,
"SPI","enable",24.55468668,0.00000002,,
"SPI","result",24.55468724,0.00000236,0x7F,0xFF
"SPI","result",24.5546905,0.00000236,0x00,0xFF
"SPI","disable",24.55469316,0.00000002,,
"SPI","enable",24.55469378,0.00000002,,
"SPI","result",24.55469422,0.00000236,0xF0,0xFF
"SPI","result",24.55469752,0.00000236,0x00,0x0B
"SPI","result",24.55470088,0.00000236,0x00,0xB2
"SPI","disable",24.5547039,0.00000002,,
"SPI","enable",24.55972204,0.00000002,,
"SPI","result",24.55972258,0.00000236,0x7F,0xFF
"SPI","result",24.55972584,0.00000236,0x00,0xFF
"SPI","disable",24.5597285,0.00000002,,
"SPI","enable",24.55972912,0.00000002,,
"SPI","result",24.55972956,0.00000236,0xF0,0xFF
"SPI","result",24.55973288,0.00000236,0x00,0x0B
"SPI","result",24.55973624,0.00000236,0x00,0xD6
"SPI","disable",24.55973926,0.00000002,,
"SPI","enable",24.56475736,0.00000002,,
"SPI","result",24.5647579,0.00000236,0x7F,0xFF
"SPI","result",24.56476116,0.00000236,0x00,0xFF
"SPI","disable",24.56476382,0.00000002,,
"SPI","enable",24.56476444,0.00000002,,
"SPI","result",24.56476488,0.00000236,0xF0,0xFF
"SPI","result",24.5647682,0.00000236,0x00,0x0B
"SPI","result",24.56477156,0.00000236,0x00,0xF4
"SPI","disable",24.56477458,0.00000002,,
"SPI","enable",24.56979426,0.00000002,,
"SPI","result",24.5697949,0.00000236,0x7F,0xFF
"SPI","result",24.56979812,0.00000236,0x00,0xFF
"SPI","disable",24.56980078,0.00000002,,
"SPI","enable",24.5698015,0.00000002,,
"SPI","result",24.56980194,0.00000236,0xF0,0xFF
"SPI","result",24.56980542,0.00000236,0x00,0x0C
"SPI","result",24.56980878,0.00000236,0x00,0x18
"SPI","disable",24.5698118,0.00000002,,
"SPI","enable",24.574828,0.00000002,,
"SPI","result",24.57482854,0.00000236,0x7F,0xFF
"SPI","result",24.5748318,0.00000236,0x00,0xFF
"SPI","disable",24.57483446,0.00000002,,
"SPI","enable",24.57483508,0.00000002,,
"SPI","result",24.57483552,0.00000236,0xF0,0xFF
"SPI","result",24.57483884,0.00000236,0x00,0x0C
"SPI","result",24.5748422,0.00000236,0x00,0x3C
"SPI","disable",24.57484522,0.00000002,,
"SPI","enable",24.57986324,0.00000002,,
"SPI","result",24.57986378,0.00000236,0x7F,0xFF
"SPI","result",24.57986704,0.00000236,0x00,0xFF
"SPI","disable",24.5798697,0.00000002,,
"SPI","enable",24.57987032,0.00000002,,
"SPI","result",24.57987076,0.00000236,0xF0,0xFF
"SPI","result",24.57987408,0.00000236,0x00,0x0C
"SPI","result",24.57987744,0.00000236,0x00,0x60
"SPI","disable",24.57988046,0.00000002,,
"SPI","enable",24.58489856,0.00000002,,
"SPI","result",24.5848991,0.00000236,0x7F,0xFF
"SPI","result",24.58490236,0.00000236,0x00,0xFF
"SPI","disable",24.58490502,0.00000002,,
"SPI","enable",24.58490564,0.00000002,,
"SPI","result",24.58490608,0.00000236,0xF0,0xFF
"SPI","result",24.5849094,0.00000236,0x00,0x0C
"SPI","result",24.58491276,0.00000236,0x00,0x84
"SPI","disable",24.58491578,0.00000002,,
"SPI","enable",24.5899339,0.00000002,,
"SPI","result",24.58993446,0.00000236,0x7F,0xFF
"SPI","result",24.5899377,0.00000236,0x00,0xFF
"SPI","disable",24.58994036,0.00000002,,
"SPI","enable",24.58994098,0.00000002,,
"SPI","result",24.58994144,0.00000234,0xF0,0xFF
"SPI","result",24.58994474,0.00000236,0x00,0x0C
"SPI","result",24.5899481,0.00000236,0x00,0xA2
"SPI","disable",24.58995112,0.00000002,,
"SPI","enable",24.59496922,0.00000002,,
"SPI","result",24.59496978,0.00000236,0x7F,0xFF
"SPI","result",24.59497302,0.00000236,0x00,0xFF
"SPI","disable",24.59497568,0.00000002,,
"SPI","enable",24.5949763,0.00000002,,
"SPI","result",24.59497676,0.00000234,0xF0,0xFF
"SPI","result",24.59498006,0.00000236,0x00,0x0C
"SPI","result",24.59498342,0.00000236,0x00,0xC6
"SPI","disable",24.59498644,0.00000002,,
"SPI","enable",24.60000612,0.00000002,,
"SPI","result",24.60000676,0.00000236,0x7F,0xFF
"SPI","result",24.60000998,0.00000236,0x00,0xFF
"SPI","disable",24.60001264,0.00000002,,
"SPI","enable",24.60001336,0.00000002,,
"SPI","result",24.60001382,0.00000236,0xF0,0xFF
"SPI","result",24.60001728,0.00000236,0x00,0x0C
"SPI","result",24.60002064,0.00000236,0x00,0xEA
"SPI","disable",24.60002366,0.00000002,,
"SPI","enable",24.60503986,0.00000002,,
"SPI","result",24.60504042,0.00000234,0x7F,0xFF
"SPI","result",24.60504366,0.00000236,0x00,0xFF
"SPI","disable",24.60504632,0.00000002,,
"SPI","enable",24.60504694,0.00000002,,
"SPI","result",24.60504738,0.00000236,0xF0,0xFF
"SPI","result",24.6050507,0.00000236,0x00,0x0D
"SPI","result",24.60505406,0.00000236,0x00,0x0E
"SPI","disable",24.60505708,0.00000002,,
"SPI","enable",24.6100751,0.00000002,,
"SPI","result",24.61007566,0.00000236,0x7F,0xFF
"SPI","result",24.6100789,0.00000236,0x00,0xFF
"SPI","disable",24.61008156,0.00000002,,
"SPI","enable",24.61008218,0.00000002,,
"SPI","result",24.61008264,0.00000234,0xF0,0xFF
"SPI","result",24.61008594,0.00000236,0x00,0x0D
"SPI","result",24.6100893,0.00000236,0x00,0x32
"SPI","disable",24.61009232,0.00000002,,
"SPI","enable",24.61511044,0.00000002,,
"SPI","result",24.615111,0.00000236,0x7F,0xFF
"SPI","result",24.61511426,0.00000236,0x00,0xFF
"SPI","disable",24.6151169,0.00000002,,
"SPI","enable",24.61511752,0.00000002,,
"SPI","result",24.61511798,0.00000236,0xF0,0xFF
"SPI","result",24.61512128,0.00000236,0x00,0x0D
"SPI","result",24.61512464,0.00000236,0x00,0x50
"SPI","disable",24.61512766,0.00000002,,
"SPI","enable",24.62014576,0.00000002,,
"SPI","result",24.62014632,0.00000236,0x7F,0xFF
"SPI","result",24.62014958,0.00000236,0x00,0xFF
"SPI","disable",24.62015222,0.00000002,,
"SPI","enable",24.62015284,0.00000002,,
"SPI","result",24.6201533,0.00000236,0xF0,0xFF
"SPI","result",24.6201566,0.00000236,0x00,0x0D
"SPI","result",24.62015996,0.00000236,0x00,0x74
"SPI","disable",24.62016298,0.00000002,,
"SPI","enable",24.62518108,0.00000002,,
"SPI","result",24.62518164,0.00000236,0x7F,0xFF
"SPI","result",24.6251849,0.00000236,0x00,0xFF
"SPI","disable",24.62518754,0.00000002,,
"SPI","enable",24.62518816,0.00000002,,
"SPI","result",24.62518862,0.00000236,0xF0,0xFF
"SPI","result",24.62519192,0.00000236,0x00,0x0D
"SPI","result",24.62519528,0.00000236,0x00,0x98
"SPI","disable",24.6251983,0.00000002,,
"SPI","enable",24.63021808,0.00000002,,
"SPI","result",24.6302187,0.00000236,0x7F,0xFF
"SPI","result",24.63022192,0.00000236,0x00,0xFF
"SPI","disable",24.63022458,0.00000002,,
"SPI","enable",24.6302253,0.00000002,,
"SPI","result",24.63022576,0.00000236,0xF0,0xFF
"SPI","result",24.63022922,0.00000236,0x00,0x0D
"SPI","result",24.63023258,0.00000236,0x00,0xBC
"SPI","disable",24.6302356,0.00000002,,
"SPI","enable",24.63525164,0.00000002,,
"SPI","result",24.6352522,0.00000236,0x7F,0xFF
"SPI","result",24.63525546,0.00000236,0x00,0xFF
"SPI","disable",24.6352581,0.00000002,,
"SPI","enable",24.63525872,0.00000002,,
"SPI","result",24.63525918,0.00000236,0xF0,0xFF
"SPI","result",24.63526248,0.00000236,0x00,0x0D
"SPI","result",24.63526584,0.00000236,0x00,0xE0
"SPI","disable",24.63526886,0.00000002,,
"SPI","enable",24.64028704,0.00000002,,
"SPI","result",24.6402876,0.00000236,0x7F,0xFF
"SPI","result",24.64029086,0.00000234,0x00,0xFF
"SPI","disable",24.6402935,0.00000002,,
"SPI","enable",24.64029412,0.00000002,,
"SPI","result",24.64029458,0.00000236,0xF0,0xFF
"SPI","result",24.64029788,0.00000236,0x00,0x0D
"SPI","result",24.64030124,0.00000236,0x00,0xFE
"SPI","disable",24.64030426,0.00000002,,
"SPI","enable",24.64532224,0.00000002,,
"SPI","result",24.64532278,0.00000236,0x7F,0xFF
"SPI","result",24.64532604,0.00000236,0x00,0xFF
"SPI","disable",24.6453287,0.00000002,,
"SPI","enable",24.64532932,0.00000002,,
"SPI","result",24.64532976,0.00000236,0xF0,0xFF
"SPI","result",24.64533308,0.00000234,0x00,0x0E
"SPI","result",24.64533642,0.00000236,0x00,0x22
"SPI","disable",24.64533944,0.00000002,,
"SPI","enable",24.65035756,0.00000002,,
"SPI","result",24.6503581,0.00000236,0x7F,0xFF
"SPI","result",24.65036136,0.00000236,0x00,0xFF
"SPI","disable",24.65036402,0.00000002,,
"SPI","enable",24.65036464,0.00000002,,
"SPI","result",24.65036508,0.00000236,0xF0,0xFF
"SPI","result",24.65036838,0.00000236,0x00,0x0E
"SPI","result",24.65037174,0.00000236,0x00,0x46
"SPI","disable",24.65037476,0.00000002,,
"SPI","enable",24.65539288,0.00000002,,
"SPI","result",24.65539342,0.00000236,0x7F,0xFF
"SPI","result",24.65539668,0.00000236,0x00,0xFF
"SPI","disable",24.65539934,0.00000002,,
"SPI","enable",24.65539996,0.00000002,,
"SPI","result",24.6554004,0.00000236,0xF0,0xFF
"SPI","result",24.6554037,0.00000236,0x00,0x0E
"SPI","result",24.65540706,0.00000236,0x00,0x6A
"SPI","disable",24.65541008,0.00000002,,
"SPI","enable",24.66042986,0.00000002,,
"SPI","result",24.66043048,0.00000236,0x7F,0xFF
"SPI","result",24.66043372,0.00000236,0x00,0xFF
"SPI","disable",24.66043638,0.00000002,,
"SPI","enable",24.6604371,0.00000002,,
"SPI","result",24.66043754,0.00000236,0xF0,0xFF
"SPI","result",24.660441,0.00000236,0x00,0x0E
"SPI","result",24.66044436,0.00000236,0x00,0x88
"SPI","disable",24.66044738,0.00000002,,
"SPI","enable",24.66546346,0.00000002,,
"SPI","result",24.66546402,0.00000234,0x7F,0xFF
"SPI","result",24.66546726,0.00000236,0x00,0xFF
"SPI","disable",24.66546992,0.00000002,,
"SPI","enable",24.66547054,0.00000002,,
"SPI","result",24.66547098,0.00000236,0xF0,0xFF
"SPI","result",24.6654743,0.00000236,0x00,0x0E
"SPI","result",24.66547766,0.00000236,0x00,0xAC
"SPI","disable",24.66548068,0.00000002,,
"SPI","enable",24.67049886,0.00000002,,
"SPI","result",24.6704994,0.00000236,0x7F,0xFF
"SPI","result",24.67050266,0.00000236,0x00,0xFF
"SPI","disable",24.67050532,0.00000002,,
"SPI","enable",24.67050594,0.00000002,,
"SPI","result",24.67050638,0.00000236,0xF0,0xFF
"SPI","result",24.6705097,0.00000236,0x00,0x0E
"SPI","result",24.67051306,0.00000236,0x00,0xD0
"SPI","disable",24.67051608,0.00000002,,
"SPI","enable",24.67553418,0.00000002,,
"SPI","result",24.67553472,0.00000236,0x7F,0xFF
"SPI","result",24.67553798,0.00000236,0x00,0xFF
"SPI","disable",24.67554064,0.00000002,,
"SPI","enable",24.67554126,0.00000002,,
"SPI","result",24.6755417,0.00000236,0xF0,0xFF
"SPI","result",24.67554502,0.00000236,0x00,0x0E
"SPI","result",24.67554838,0.00000236,0x00,0xF4
"SPI","disable",24.6755514,0.00000002,,
"SPI","enable",24.6805695,0.00000002,,
"SPI","result",24.68057004,0.00000236,0x7F,0xFF
"SPI","result",24.6805733,0.00000236,0x00,0xFF
"SPI","disable",24.68057596,0.00000002,,
"SPI","enable",24.68057658,0.00000002,,
"SPI","result",24.68057702,0.00000236,0xF0,0xFF
"SPI","result",24.68058034,0.00000236,0x00,0x0F
"SPI","result",24.6805837,0.00000236,0x00,0x18
"SPI","disable",24.68058672,0.00000002,,
"SPI","enable",24.68560482,0.00000002,,
"SPI","result",24.68560536,0.00000236,0x7F,0xFF
"SPI","result",24.68560862,0.00000236,0x00,0xFF
"SPI","disable",24.68561128,0.00000002,,
"SPI","enable",24.6856119,0.00000002,,
"SPI","result",24.68561234,0.00000236,0xF0,0xFF
"SPI","result",24.68561566,0.00000236,0x00,0x0F
"SPI","result",24.68561902,0.00000236,0x00,0x36
"SPI","disable",24.68562204,0.00000002,,
"SPI","enable",24.69064172,0.00000002,,
"SPI","result",24.69064236,0.00000236,0x7F,0xFF
"SPI","result",24.69064558,0.00000236,0x00,0xFF
"SPI","disable",24.69064824,0.00000002,,
"SPI","enable",24.69064896,0.00000002,,
"SPI","result",24.6906494,0.00000236,0xF0,0xFF
"SPI","result",24.69065288,0.00000236,0x00,0x0F
"SPI","result",24.69065624,0.00000236,0x00,0x5A
"SPI","disable",24.69065926,0.00000002,,
"SPI","enable",24.69567546,0.00000002,,
"SPI","result",24.695676,0.00000236,0x7F,0xFF
"SPI","result",24.69567926,0.00000236,0x00,0xFF
"SPI","disable",24.69568192,0.00000002,,
"SPI","enable",24.69568254,0.00000002,,
"SPI","result",24.69568298,0.00000236,0xF0,0xFF
"SPI","result",24.6956863,0.00000236,0x00,0x0F
"SPI","result",24.69568966,0.00000234,0x00,0x7E
"SPI","disable",24.69569268,0.00000002,,
"SPI","enable",24.70071072,0.00000002,,
"SPI","result",24.70071128,0.00000236,0x7F,0xFF
"SPI","result",24.70071452,0.00000236,0x00,0xFF
"SPI","disable",24.70071718,0.00000002,,
"SPI","enable",24.7007178,0.00000002,,
"SPI","result",24.70071826,0.00000236,0xF0,0xFF
"SPI","result",24.70072156,0.00000236,0x00,0x0F
"SPI","result",24.70072492,0.00000236,0x00,0xA2
"SPI","disable",24.70072794,0.00000002,,
"SPI","enable",24.70574604,0.00000002,,
"SPI","result",24.7057466,0.00000236,0x7F,0xFF
"SPI","result",24.70574984,0.00000236,0x00,0xFF
"SPI","disable",24.7057525,0.00000002,,
"SPI","enable",24.70575312,0.00000002,,
"SPI","result",24.70575358,0.00000234,0xF0,0xFF
"SPI","result",24.70575688,0.00000236,0x00,0x0F
"SPI","result",24.70576024,0.00000236,0x00,0xC6
"SPI","disable",24.70576326,0.00000002,,
"SPI","enable",24.71078136,0.00000002,,
"SPI","result",24.71078192,0.00000234,0x7F,0xFF
"SPI","result",24.71078516,0.00000236,0x00,0xFF
"SPI","disable",24.71078782,0.00000002,,
"SPI","enable",24.71078844,0.00000002,,
"SPI","result",24.7107889,0.00000234,0xF0,0xFF
"SPI","result",24.7107922,0.00000236,0x00,0x0F
"SPI","result",24.71079556,0.00000236,0x00,0xE4
"SPI","disable",24.71079858,0.00000002,,
"SPI","enable",24.71581668,0.00000002,,
"SPI","result",24.71581724,0.00000234,0x7F,0xFF
"SPI","result",24.71582048,0.00000236,0x00,0xFF
"SPI","disable",24.71582314,0.00000002,,
"SPI","enable",24.71582376,0.00000002,,
"SPI","result",24.7158242,0.00000236,0xF0,0xFF
"SPI","result",24.71582752,0.00000236,0x00,0x10
"SPI","result",24.71583088,0.00000236,0x00,0x00
"SPI","disable",24.7158339,0.00000002,,
"SPI","enable",24.71583566,0.00000002,,
"SPI","result",24.71583616,0.00000236,0x7F,0xFF
"SPI","result",24.71583934,0.00000236,0x00,0xFF
"SPI","disable",24.71584204,0.00000002,,
"SPI","enable",24.71584244,0.00000002,,
"SPI","result",24.71584304,0.00000236,0x67,0xFF
"SPI","result",24.71584616,0.00000236,0x00,0xFF
"SPI","disable",24.71584884,0.00000002,,
"SPI","enable",24.7158502,0.00000002,,
"SPI","result",24.7158507,0.00000236,0x7F,0xFF
"SPI","result",24.71585388,0.00000236,0x00,0xFF
"SPI","disable",24.71585658,0.00000002,,
"SPI","enable",24.7158572,0.00000002,,
"SPI","result",24.71585764,0.00000236,0xF0,0xFF
"SPI","result",24.71586096,0.00000236,0x00,0x10
"SPI","result",24.71586432,0.00000236,0x00,0x00
"SPI","disable",24.71586734,0.00000002,,
"SPI","enable",24.71586916,0.00000002,,
"SPI","result",24.71586966,0.00000236,0x7F,0xFF
"SPI","result",24.71587282,0.00000236,0x00,0xFF
"SPI","disable",24.71587554,0.00000002,,
"SPI","enable",24.71587616,0.00000002,,
"SPI","result",24.7158766,0.00000236,0xF2,0xFF
"SPI","result",24.71587992,0.00000236,0x00,0xFE
"SPI","result",24.71588328,0.00000236,0x00,0xFC
"SPI","result",24.71588664,0.00000236,0x00,0xFF
"SPI","result",24.71589,0.00000236,0x00,0xF7
"SPI","result",24.71589336,0.00000234,0x00,0xFF
"SPI","result",24.7158967,0.00000236,0x00,0xFF
"SPI","result",24.71590006,0.00000236,0x00,0xFE
"SPI","result",24.71590342,0.00000236,0x00,0xFC
"SPI","result",24.71590678,0.00000236,0x00,0xFF
"SPI","result",24.71591014,0.00000236,0x00,0xF8
"SPI","result",24.7159135,0.00000236,0x00,0xFF
"SPI","result",24.71591686,0.00000236,0x00,0xFE
"SPI","disable",24.71591988,0.00000002,,
"SPI","enable",24.71592192,0.00000002,,
"SPI","result",24.71592242,0.00000236,0x7F,0xFF
"SPI","result",24.7159256,0.00000234,0x00,0xFF
"SPI","disable",24.7159283,0.00000002,,
"SPI","enable",24.71592892,0.00000002,,
"SPI","result",24.71592936,0.00000236,0xF2,0xFF
"SPI","result",24.71593268,0.00000236,0x00,0xFE
"SPI","result",24.71593604,0.00000236,0x00,0xFE
"SPI","result",24.7159394,0.00000236,0x00,0xFF
"SPI","result",24.71594276,0.00000236,0x00,0xF8
"SPI","result",24.71594612,0.00000234,0x00,0xFF
"SPI","result",24.71594948,0.00000234,0x00,0xFD
"SPI","result",24.71595282,0.00000236,0x00,0xFE
"SPI","result",24.71595618,0.00000236,0x00,0xFE
"SPI","result",24.71595954,0.00000236,0x00,0xFF
"SPI","result",24.7159629,0.00000236,0x00,0xF8
"SPI","result",24.71596626,0.00000236,0x00,0xFF
"SPI","result",24.71596962,0.00000236,0x00,0xFD
"SPI","disable",24.71597264,0.00000002,,
"SPI","enable",24.71597438,0.00000002,,
"SPI","result",24.71597488,0.00000236,0x7F,0xFF
"SPI","result",24.71597806,0.00000236,0x00,0xFF
"SPI","disable",24.71598078,0.00000002,,
"SPI","enable",24.71598138,0.00000002,,
"SPI","result",24.71598184,0.00000236,0xF2,0xFF
"SPI","result",24.71598514,0.00000236,0x00,0xFE
"SPI","result",24.7159885,0.00000236,0x00,0xFD
"SPI","result",24.71599186,0.00000236,0x00,0xFF
"SPI","result",24.71599522,0.00000236,0x00,0xF6
"SPI","result",24.71599858,0.00000236,0x00,0xFF
"SPI","result",24.71600194,0.00000236,0x00,0xFB
"SPI","result",24.7160053,0.00000236,0x00,0xFE
"SPI","result",24.71600866,0.00000236,0x00,0xFC
"SPI","result",24.71601202,0.00000236,0x00,0xFF
"SPI","result",24.71601538,0.00000236,0x00,0xF5
"SPI","result",24.71601874,0.00000236,0x00,0xFF
"SPI","result",24.7160221,0.00000236,0x00,0xFC
"SPI","disable",24.71602512,0.00000002,,
"SPI","enable",24.71602686,0.00000002,,
"SPI","result",24.71602736,0.00000236,0x7F,0xFF
"SPI","result",24.71603054,0.00000236,0x00,0xFF
"SPI","disable",24.71603324,0.00000002,,
"SPI","enable",24.71603386,0.00000002,,
"SPI","result",24.71603432,0.00000236,0xF2,0xFF
"SPI","result",24.71603762,0.00000236,0x00,0xFE
"SPI","result",24.71604098,0.00000236,0x00,0xFB
"SPI","result",24.71604434,0.00000236,0x00,0xFF
"SPI","result",24.7160477,0.00000236,0x00,0xF5
"SPI","result",24.71605106,0.00000236,0x00,0xFF
"SPI","result",24.71605442,0.00000236,0x00,0xFB
"SPI","result",24.71605778,0.00000236,0x00,0xFE
"SPI","result",24.71606114,0.00000236,0x00,0xFB
"SPI","result",24.7160645,0.00000236,0x00,0xFF
"SPI","result",24.71606786,0.00000236,0x00,0xF6
"SPI","result",24.71607122,0.00000236,0x00,0xFF
"SPI","result",24.71607458,0.00000236,0x00,0xFC
"SPI","disable",24.7160776,0.00000002,,
"SPI","enable",24.71607934,0.00000002,,
"SPI","result",24.71607984,0.00000236,0x7F,0xFF
"SPI","result",24.71608302,0.00000236,0x00,0xFF
"SPI","disable",24.71608572,0.00000002,,
"SPI","enable",24.71608634,0.00000002,,
"SPI","result",24.71608678,0.00000236,0xF2,0xFF
"SPI","result",24.7160901,0.00000236,0x00,0xFE
"SPI","result",24.71609346,0.00000236,0x00,0xFA
"SPI","result",24.71609682,0.00000236,0x00,0xFF
"SPI","result",24.71610018,0.00000236,0x00,0xF5
"SPI","result",24.71610354,0.00000236,0x00,0xFF
"SPI","result",24.7161069,0.00000236,0x00,0xFC
"SPI","result",24.71611026,0.00000236,0x00,0xFE
"SPI","result",24.71611362,0.00000236,0x00,0xF9
"SPI","result",24.71611698,0.00000234,0x00,0xFF
"SPI","result",24.71612032,0.00000236,0x00,0xF6
"SPI","result",24.71612368,0.00000236,0x00,0xFF
"SPI","result",24.71612704,0.00000236,0x00,0xFC
"SPI","disable",24.71613006,0.00000002,,
"SPI","enable",24.7161318,0.00000002,,
"SPI","result",24.7161323,0.00000236,0x7F,0xFF
"SPI","result",24.71613548,0.00000236,0x00,0xFF
"SPI","disable",24.7161382,0.00000002,,
"SPI","enable",24.71613882,0.00000002,,
"SPI","result",24.71613926,0.00000236,0xF2,0xFF
"SPI","result",24.71614256,0.00000236,0x00,0xFE
"SPI","result",24.71614592,0.00000236,0x00,0xF9
"SPI","result",24.71614928,0.00000236,0x00,0xFF
"SPI","result",24.71615264,0.00000236,0x00,0xF6
"SPI","result",24.716156,0.00000236,0x00,0xFF
"SPI","result",24.71615936,0.00000236,0x00,0xFF
"SPI","result",24.71616272,0.00000236,0x00,0xFE
"SPI","result",24.71616608,0.00000236,0x00,0xFA
"SPI","result",24.71616944,0.00000236,0x00,0xFF
"SPI","result",24.7161728,0.00000236,0x00,0xF7
"SPI","result",24.71617616,0.00000236,0x00,0x00
"SPI","result",24.71617952,0.00000236,0x00,0x02
"SPI","disable",24.71618254,0.00000002,,
"SPI","enable",24.71618428,0.00000002,,
"SPI","result",24.71618478,0.00000236,0x7F,0xFF
"SPI","result",24.71618796,0.00000236,0x00,0xFF
"SPI","disable",24.71619066,0.00000002,,
"SPI","enable",24.71619128,0.00000002,,
"SPI","result",24.71619174,0.00000236,0xF2,0xFF
"SPI","result",24.71619504,0.00000236,0x00,0xFE
"SPI","result",24.7161984,0.00000236,0x00,0xF7
"SPI","result",24.71620176,0.00000236,0x00,0xFF
"SPI","result",24.71620512,0.00000236,0x00,0xF6
"SPI","result",24.71620848,0.00000236,0x00,0xFF
"SPI","result",24.71621184,0.00000236,0x00,0xFE
"SPI","result",24.7162152,0.00000236,0x00,0xFE
"SPI","result",24.71621856,0.00000236,0x00,0xF7
"SPI","result",24.71622192,0.00000236,0x00,0xFF
"SPI","result",24.71622528,0.00000236,0x00,0xF2
"SPI","result",24.71622864,0.00000236,0x00,0xFF
"SPI","result",24.716232,0.00000236,0x00,0xFE
"SPI","disable",24.71623502,0.00000002,,
"SPI","enable",24.71623676,0.00000002,,
"SPI","result",24.71623726,0.00000236,0x7F,0xFF
"SPI","result",24.71624044,0.00000236,0x00,0xFF
"SPI","disable",24.71624314,0.00000002,,
"SPI","enable",24.71624376,0.00000002,,
"SPI","result",24.7162442,0.00000236,0xF2,0xFF
"SPI","result",24.71624752,0.00000236,0x00,0xFE
"SPI","result",24.71625088,0.00000236,0x00,0xF8
"SPI","result",24.71625424,0.00000236,0x00,0xFF
"SPI","result",24.7162576,0.00000236,0x00,0xF1
"SPI","result",24.71626096,0.00000236,0x00,0xFF
"SPI","result",24.71626432,0.00000236,0x00,0xFF
"SPI","result",24.71626768,0.00000236,0x00,0xFE
"SPI","result",24.71627104,0.00000236,0x00,0xF6
"SPI","result",24.7162744,0.00000236,0x00,0xFF
"SPI","result",24.71627776,0.00000236,0x00,0xF1
"SPI","result",24.71628112,0.00000236,0x00,0xFF
"SPI","result",24.71628448,0.00000234,0x00,0xFE
"SPI","disable",24.7162875,0.00000002,,
"SPI","enable",24.71628922,0.00000002,,
"SPI","result",24.71628974,0.00000236,0x7F,0xFF
"SPI","result",24.7162929,0.00000236,0x00,0xFF
"SPI","disable",24.71629562,0.00000002,,
"SPI","enable",24.71629624,0.00000002,,
"SPI","result",24.71629668,0.00000236,0xF2,0xFF
"SPI","result",24.7163,0.00000236,0x00,0xFE
"SPI","result",24.71630336,0.00000234,0x00,0xF7
"SPI","result",24.71630672,0.00000234,0x00,0xFF
"SPI","result",24.71631006,0.00000236,0x00,0xF1
"SPI","result",24.71631342,0.00000236,0x00,0xFF
"SPI","result",24.71631678,0.00000236,0x00,0xFF
"SPI","result",24.71632014,0.00000236,0x00,0xFE
"SPI","result",24.7163235,0.00000236,0x00,0xF9
"SPI","result",24.71632686,0.00000236,0x00,0xFF
"SPI","result",24.71633022,0.00000236,0x00,0xF1
"SPI","result",24.71633358,0.00000236,0x00,0x00
"SPI","result",24.71633694,0.00000236,0x00,0x00
"SPI","disable",24.71633996,0.00000002,,
"SPI","enable",24.7163417,0.00000002,,
"SPI","result",24.7163422,0.00000236,0x7F,0xFF
"SPI","result",24.71634538,0.00000236,0x00,0xFF
"SPI","disable",24.71634808,0.00000002,,
"SPI","enable",24.7163487,0.00000002,,
"SPI","result",24.71634916,0.00000236,0xF2,0xFF
"SPI","result",24.71635246,0.00000236,0x00,0xFE
"SPI","result",24.71635582,0.00000236,0x00,0xF9
"SPI","result",24.71635918,0.00000236,0x00,0xFF
"SPI","result",24.71636254,0.00000236,0x00,0xF2
"SPI","result",24.7163659,0.00000236,0x00,0x00
"SPI","result",24.71636926,0.00000236,0x00,0x00
"SPI","result",24.71637262,0.00000236,0x00,0xFE
"SPI","result",24.71637598,0.00000236,0x00,0xF9
"SPI","result",24.71637934,0.00000236,0x00,0xFF
"SPI","result",24.7163827,0.00000236,0x00,0xF3
"SPI","result",24.71638606,0.00000236,0x00,0x00
"SPI","result",24.71638942,0.00000236,0x00,0x01
"SPI","disable",24.71639244,0.00000002,,
"SPI","enable",24.71639418,0.00000002,,
"SPI","result",24.71639468,0.00000236,0x7F,0xFF
"SPI","result",24.71639786,0.00000236,0x00,0xFF
"SPI","disable",24.71640056,0.00000002,,
"SPI","enable",24.71640118,0.00000002,,
"SPI","result",24.71640164,0.00000236,0xF2,0xFF
"SPI","result",24.71640494,0.00000236,0x00,0xFE
"SPI","result",24.7164083,0.00000236,0x00,0xF9
"SPI","result",24.71641166,0.00000236,0x00,0xFF
"SPI","result",24.71641502,0.00000236,0x00,0xF3
"SPI","result",24.71641838,0.00000236,0x00,0x00
"SPI","result",24.71642174,0.00000236,0x00,0x04
"SPI","result",24.7164251,0.00000236,0x00,0xFE
"SPI","result",24.71642846,0.00000236,0x00,0xF7
"SPI","result",24.71643182,0.00000236,0x00,0xFF
"SPI","result",24.71643518,0.00000236,0x00,0xF5
"SPI","result",24.71643854,0.00000236,0x00,0x00
"SPI","result",24.7164419,0.00000236,0x00,0x04
"SPI","disable",24.71644492,0.00000002,,
"SPI","enable",24.71644666,0.00000002,,
"SPI","result",24.71644716,0.00000236,0x7F,0xFF
"SPI","result",24.71645034,0.00000234,0x00,0xFF
"SPI","disable",24.71645304,0.00000002,,
"SPI","enable",24.71645366,0.00000002,,
"SPI","result",24.7164541,0.00000236,0xF2,0xFF
"SPI","result",24.71645742,0.00000236,0x00,0xFE
"SPI","result",24.71646078,0.00000236,0x00,0xF6
"SPI","result",24.71646414,0.00000236,0x00,0xFF
"SPI","result",24.7164675,0.00000236,0x00,0xF6
"SPI","result",24.71647086,0.00000236,0x00,0x00
"SPI","result",24.71647422,0.00000234,0x00,0x02
"SPI","result",24.71647756,0.00000236,0x00,0xFE
"SPI","result",24.71648092,0.00000236,0x00,0xF8
"SPI","result",24.71648428,0.00000236,0x00,0xFF
"SPI","result",24.71648764,0.00000236,0x00,0xF2
"SPI","result",24.716491,0.00000236,0x00,0x00
"SPI","result",24.71649436,0.00000236,0x00,0x02
"SPI","disable",24.71649738,0.00000002,,
"SPI","enable",24.71649912,0.00000002,,
"SPI","result",24.71649962,0.00000236,0x7F,0xFF
"SPI","result",24.7165028,0.00000236,0x00,0xFF
"SPI","disable",24.71650552,0.00000002,,
"SPI","enable",24.71650614,0.00000002,,
"SPI","result",24.71650658,0.00000236,0xF2,0xFF
"SPI","result",24.71650988,0.00000236,0x00,0xFE
"SPI","result",24.71651324,0.00000236,0x00,0xF7
"SPI","result",24.7165166,0.00000236,0x00,0xFF
"SPI","result",24.71651996,0.00000236,0x00,0xF1
"SPI","result",24.71652332,0.00000236,0x00,0x00
"SPI","result",24.71652668,0.00000236,0x00,0x03
"SPI","result",24.71653004,0.00000236,0x00,0xFE
"SPI","result",24.7165334,0.00000236,0x00,0xF9
"SPI","result",24.71653676,0.00000236,0x00,0xFF
"SPI","result",24.71654012,0.00000236,0x00,0xEE
"SPI","result",24.71654348,0.00000236,0x00,0x00
"SPI","result",24.71654684,0.00000236,0x00,0x05
"SPI","disable",24.71654986,0.00000002,,
"SPI","enable",24.7165516,0.00000002,,
"SPI","result",24.7165521,0.00000236,0x7F,0xFF
"SPI","result",24.71655528,0.00000236,0x00,0xFF
"SPI","disable",24.71655798,0.00000002,,
"SPI","enable",24.7165586,0.00000002,,
"SPI","result",24.71655906,0.00000236,0xF2,0xFF
"SPI","result",24.71656236,0.00000236,0x00,0xFE
"SPI","result",24.71656572,0.00000236,0x00,0xFB
"SPI","result",24.71656908,0.00000236,0x00,0xFF
"SPI","result",24.71657244,0.00000236,0x00,0xED
"SPI","result",24.7165758,0.00000236,0x00,0x00
"SPI","result",24.71657916,0.00000236,0x00,0x04
"SPI","result",24.71658252,0.00000236,0x00,0xFE
"SPI","result",24.71658588,0.00000236,0x00,0xFD
"SPI","result",24.71658924,0.00000236,0x00,0xFF
"SPI","result",24.7165926,0.00000236,0x00,0xE9
"SPI","result",24.71659596,0.00000236,0x00,0x00
"SPI","result",24.71659932,0.00000236,0x00,0x04
"SPI","disable",24.71660234,0.00000002,,
"SPI","enable",24.71660408,0.00000002,,
"SPI","result",24.71660458,0.00000236,0x7F,0xFF
"SPI","result",24.71660776,0.00000236,0x00,0xFF
"SPI","disable",24.71661046,0.00000002,,
"SPI","enable",24.71661108,0.00000002,,
"SPI","result",24.71661152,0.00000236,0xF2,0xFF
"SPI","result",24.71661484,0.00000236,0x00,0xFE
"SPI","result",24.7166182,0.00000236,0x00,0xFE
"SPI","result",24.71662156,0.00000236,0x00,0xFF
"SPI","result",24.71662492,0.00000236,0x00,0xE9
"SPI","result",24.71662828,0.00000236,0x00,0x00
"SPI","result",24.71663164,0.00000236,0x00,0x06
"SPI","result",24.716635,0.00000236,0x00,0xFE
"SPI","result",24.71663836,0.00000236,0x00,0xFF
"SPI","result",24.71664172,0.00000234,0x00,0xFF
"SPI","result",24.71664508,0.00000234,0x00,0xEB
"SPI","result",24.71664842,0.00000236,0x00,0x00
"SPI","result",24.71665178,0.00000236,0x00,0x04
"SPI","disable",24.7166548,0.00000002,,
"SPI","enable",24.71665654,0.00000002,,
"SPI","result",24.71665704,0.00000236,0x7F,0xFF
"SPI","result",24.71666022,0.00000236,0x00,0xFF
"SPI","disable",24.71666294,0.00000002,,
"SPI","enable",24.71666356,0.00000002,,
"SPI","result",24.716664,0.00000236,0xF2,0xFF
"SPI","result",24.7166673,0.00000236,0x00,0xFE
"SPI","result",24.71667066,0.00000236,0x00,0xFE
"SPI","result",24.71667402,0.00000236,0x00,0xFF
"SPI","result",24.71667738,0.00000236,0x00,0xEB
"SPI","result",24.71668074,0.00000236,0x00,0x00
"SPI","result",24.7166841,0.00000236,0x00,0x03
"SPI","result",24.71668746,0.00000236,0x00,0xFE
"SPI","result",24.71669082,0.00000236,0x00,0xFE
"SPI","result",24.71669418,0.00000236,0x00,0xFF
"SPI","result",24.71669754,0.00000236,0x00,0xEC
"SPI","result",24.7167009,0.00000236,0x00,0x00
"SPI","result",24.71670426,0.00000236,0x00,0x02
"SPI","disable",24.71670728,0.00000002,,
"SPI","enable",24.71670902,0.00000002,,
"SPI","result",24.71670952,0.00000236,0x7F,0xFF
"SPI","result",24.7167127,0.00000236,0x00,0xFF
"SPI","disable",24.7167154,0.00000002,,
"SPI","enable",24.71671602,0.00000002,,
"SPI","result",24.71671648,0.00000236,0xF2,0xFF
"SPI","result",24.71671978,0.00000236,0x00,0xFE
"SPI","result",24.71672314,0.00000236,0x00,0xFD
"SPI","result",24.7167265,0.00000236,0x00,0xFF
"SPI","result",24.71672986,0.00000236,0x00,0xEB
"SPI","result",24.71673322,0.00000236,0x00,0x00
"SPI","result",24.71673658,0.00000236,0x00,0x00
"SPI","result",24.71673994,0.00000236,0x00,0xFE
"SPI","result",24.7167433,0.00000236,0x00,0xFC
"SPI","result",24.71674666,0.00000236,0x00,0xFF
"SPI","result",24.71675002,0.00000236,0x00,0xEA
"SPI","result",24.71675338,0.00000236,0x00,0x00
"SPI","result",24.71675674,0.00000236,0x00,0x00
"SPI","disable",24.71675976,0.00000002,,
"SPI","enable",24.7167615,0.00000002,,
"SPI","result",24.716762,0.00000236,0x7F,0xFF
"SPI","result",24.71676518,0.00000236,0x00,0xFF
"SPI","disable",24.71676788,0.00000002,,
"SPI","enable",24.7167685,0.00000002,,
"SPI","result",24.71676896,0.00000234,0xF2,0xFF
"SPI","result",24.71677226,0.00000236,0x00,0xFE
"SPI","result",24.71677562,0.00000236,0x00,0xFC
"SPI","result",24.71677898,0.00000236,0x00,0xFF
"SPI","result",24.71678234,0.00000236,0x00,0xEB
"SPI","result",24.7167857,0.00000236,0x00,0xFF
"SPI","result",24.71678906,0.00000236,0x00,0xFF
"SPI","result",24.71679242,0.00000236,0x00,0xFE
"SPI","result",24.71679578,0.00000236,0x00,0xFC
"SPI","result",24.71679914,0.00000236,0x00,0xFF
"SPI","result",24.7168025,0.00000236,0x00,0xEB
"SPI","result",24.71680586,0.00000236,0x00,0xFF
"SPI","result",24.71680922,0.00000236,0x00,0xFF
"SPI","disable",24.71681224,0.00000002,,
"SPI","enable",24.71681396,0.00000002,,
"SPI","result",24.71681448,0.00000236,0x7F,0xFF
"SPI","result",24.71681764,0.00000236,0x00,0xFF
"SPI","disable",24.71682036,0.00000002,,
"SPI","enable",24.71682098,0.00000002,,
"SPI","result",24.71682142,0.00000236,0xF2,0xFF
"SPI","result",24.71682474,0.00000236,0x00,0xFE
"SPI","result",24.7168281,0.00000236,0x00,0xFE
"SPI","result",24.71683146,0.00000234,0x00,0xFF
"SPI","result",24.7168348,0.00000236,0x00,0xED
"SPI","result",24.71683816,0.00000236,0x00,0xFF
"SPI","result",24.71684152,0.00000236,0x00,0xFF
"SPI","result",24.71684488,0.00000236,0x00,0xFE
"SPI","result",24.71684824,0.00000236,0x00,0xFD
"SPI","result",24.7168516,0.00000236,0x00,0xFF
"SPI","result",24.71685496,0.00000236,0x00,0xF0
"SPI","result",24.71685832,0.00000236,0x00,0x00
"SPI","result",24.71686168,0.00000236,0x00,0x02
"SPI","disable",24.7168647,0.00000002,,
"SPI","enable",24.71686644,0.00000002,,
"SPI","result",24.71686694,0.00000236,0x7F,0xFF
"SPI","result",24.71687012,0.00000236,0x00,0xFF
"SPI","disable",24.71687282,0.00000002,,
"SPI","enable",24.71687344,0.00000002,,
"SPI","result",24.7168739,0.00000236,0xF2,0xFF
"SPI","result",24.7168772,0.00000236,0x00,0xFE
"SPI","result",24.71688056,0.00000236,0x00,0xFD
"SPI","result",24.71688392,0.00000236,0x00,0xFF
"SPI","result",24.71688728,0.00000236,0x00,0xF3
"SPI","result",24.71689064,0.00000236,0x00,0x00
"SPI","result",24.716894,0.00000236,0x00,0x02
"SPI","result",24.71689736,0.00000236,0x00,0xFE
"SPI","result",24.71690072,0.00000236,0x00,0xFD
"SPI","result",24.71690408,0.00000236,0x00,0xFF
"SPI","result",24.71690744,0.00000236,0x00,0xF1
"SPI","result",24.7169108,0.00000236,0x00,0x00
"SPI","result",24.71691416,0.00000236,0x00,0x04
"SPI","disable",24.71691718,0.00000002,,
"SPI","enable",24.71691892,0.00000002,,
"SPI","result",24.71691942,0.00000236,0x7F,0xFF
"SPI","result",24.7169226,0.00000236,0x00,0xFF
"SPI","disable",24.7169253,0.00000002,,
"SPI","enable",24.71692592,0.00000002,,
"SPI","result",24.71692638,0.00000236,0xF2,0xFF
"SPI","result",24.71692968,0.00000236,0x00,0xFE
"SPI","result",24.71693304,0.00000236,0x00,0xFC
"SPI","result",24.7169364,0.00000236,0x00,0xFF
"SPI","result",24.71693976,0.00000236,0x00,0xF1
"SPI","result",24.71694312,0.00000236,0x00,0x00
"SPI","result",24.71694648,0.00000236,0x00,0x06
"SPI","result",24.71694984,0.00000236,0x00,0xFE
"SPI","result",24.7169532,0.00000236,0x00,0xFB
"SPI","result",24.71695656,0.00000236,0x00,0xFF
"SPI","result",24.71695992,0.00000236,0x00,0xF0
"SPI","result",24.71696328,0.00000236,0x00,0x00
"SPI","result",24.71696664,0.00000236,0x00,0x06
"SPI","disable",24.71696966,0.00000002,,
"SPI","enable",24.7169714,0.00000002,,
"SPI","result",24.7169719,0.00000236,0x7F,0xFF
"SPI","result",24.71697508,0.00000234,0x00,0xFF
"SPI","disable",24.71697778,0.00000002,,
"SPI","enable",24.7169784,0.00000002,,
"SPI","result",24.71697884,0.00000236,0xF2,0xFF
"SPI","result",24.71698216,0.00000236,0x00,0xFE
"SPI","result",24.71698552,0.00000236,0x00,0xFE
"SPI","result",24.71698888,0.00000236,0x00,0xFF
"SPI","result",24.71699224,0.00000236,0x00,0xF1
"SPI","result",24.7169956,0.00000236,0x00,0x00
"SPI","result",24.71699896,0.00000236,0x00,0x04
"SPI","result",24.71700232,0.00000234,0x00,0xFE
"SPI","result",24.71700566,0.00000236,0x00,0xFE
"SPI","result",24.71700902,0.00000236,0x00,0xFF
"SPI","result",24.71701238,0.00000236,0x00,0xF1
"SPI","result",24.71701574,0.00000236,0x00,0x00
"SPI","result",24.7170191,0.00000236,0x00,0x05
"SPI","disable",24.71702212,0.00000002,,
"SPI","enable",24.71702386,0.00000002,,
"SPI","result",24.71702436,0.00000236,0x7F,0xFF
"SPI","result",24.71702754,0.00000236,0x00,0xFF
"SPI","disable",24.71703026,0.00000002,,
"SPI","enable",24.71703088,0.00000002,,
"SPI","result",24.71703132,0.00000236,0xF2,0xFF
"SPI","result",24.71703462,0.00000236,0x00,0xFE
"SPI","result",24.71703798,0.00000236,0x00,0xFE
"SPI","result",24.71704134,0.00000236,0x00,0xFF
"SPI","result",24.7170447,0.00000236,0x00,0xF3
"SPI","result",24.71704806,0.00000236,0x00,0x00
"SPI","result",24.71705142,0.00000236,0x00,0x06
"SPI","result",24.71705478,0.00000236,0x00,0xFF
"SPI","result",24.71705814,0.00000236,0x00,0x01
"SPI","result",24.7170615,0.00000236,0x00,0xFF
"SPI","result",24.71706486,0.00000236,0x00,0xF3
"SPI","result",24.71706822,0.00000236,0x00,0x00
"SPI","result",24.71707158,0.00000236,0x00,0x04
"SPI","disable",24.7170746,0.00000002,,
"SPI","enable",24.71707634,0.00000002,,
"SPI","result",24.71707684,0.00000236,0x7F,0xFF
"SPI","result",24.71708002,0.00000236,0x00,0xFF
"SPI","disable",24.71708272,0.00000002,,
"SPI","enable",24.71708334,0.00000002,,
"SPI","result",24.7170838,0.00000236,0xF2,0xFF
"SPI","result",24.7170871,0.00000236,0x00,0xFF
"SPI","result",24.71709046,0.00000236,0x00,0x02
"SPI","result",24.71709382,0.00000236,0x00,0xFF
"SPI","result",24.71709718,0.00000236,0x00,0xF2
"SPI","result",24.71710054,0.00000236,0x00,0x00
"SPI","result",24.7171039,0.00000236,0x00,0x04
"SPI","result",24.71710726,0.00000236,0x00,0xFF
"SPI","result",24.71711062,0.00000236,0x00,0x01
"SPI","result",24.71711398,0.00000236,0x00,0xFF
"SPI","result",24.71711734,0.00000236,0x00,0xF4
"SPI","result",24.7171207,0.00000236,0x00,0x00
"SPI","result",24.71712406,0.00000236,0x00,0x03
"SPI","disable",24.71712708,0.00000002,,
"SPI","enable",24.71712882,0.00000002,,
"SPI","result",24.71712932,0.00000236,0x7F,0xFF
"SPI","result",24.7171325,0.00000236,0x00,0xFF
"SPI","disable",24.7171352,0.00000002,,
"SPI","enable",24.71713582,0.00000002,,
"SPI","result",24.71713626,0.00000236,0xF2,0xFF
"SPI","result",24.71713958,0.00000236,0x00,0xFF
"SPI","result",24.71714294,0.00000236,0x00,0x01
"SPI","result",24.7171463,0.00000236,0x00,0xFF
"SPI","result",24.71714966,0.00000236,0x00,0xF3
"SPI","result",24.71715302,0.00000236,0x00,0x00
"SPI","result",24.71715638,0.00000236,0x00,0x00
"SPI","result",24.71715974,0.00000236,0x00,0xFF
"SPI","result",24.7171631,0.00000236,0x00,0x01
"SPI","result",24.71716646,0.00000236,0x00,0xFF
"SPI","result",24.71716982,0.00000234,0x00,0xF3
"SPI","result",24.71717316,0.00000236,0x00,0xFF
"SPI","result",24.71717652,0.00000236,0x00,0xFF
"SPI","disable",24.71717954,0.00000002,,
"SPI","enable",24.71718128,0.00000002,,
"SPI","result",24.71718178,0.00000236,0x7F,0xFF
"SPI","result",24.71718496,0.00000236,0x00,0xFF
"SPI","disable",24.71718768,0.00000002,,
"SPI","enable",24.7171883,0.00000002,,
"SPI","result",24.71718874,0.00000236,0xF2,0xFF
"SPI","result",24.71719206,0.00000234,0x00,0xFF
"SPI","result",24.7171954,0.00000236,0x00,0x01
"SPI","result",24.71719876,0.00000236,0x00,0xFF
"SPI","result",24.71720212,0.00000236,0x00,0xF3
"SPI","result",24.71720548,0.00000236,0x00,0xFF
"SPI","result",24.71720884,0.00000236,0x00,0xFE
"SPI","result",24.7172122,0.00000236,0x00,0xFE
"SPI","result",24.71721556,0.00000236,0x00,0xFF
"SPI","result",24.71721892,0.00000236,0x00,0xFF
"SPI","result",24.71722228,0.00000236,0x00,0xF5
"SPI","result",24.71722564,0.00000236,0x00,0xFF
"SPI","result",24.717229,0.00000236,0x00,0xFD
"SPI","disable",24.71723202,0.00000002,,
"SPI","enable",24.71723376,0.00000002,,
"SPI","result",24.71723426,0.00000236,0x7F,0xFF
"SPI","result",24.71723744,0.00000236,0x00,0xFF
"SPI","disable",24.71724014,0.00000002,,
"SPI","enable",24.71724076,0.00000002,,
"SPI","result",24.71724122,0.00000236,0xF2,0xFF
"SPI","result",24.71724452,0.00000236,0x00,0xFF
"SPI","result",24.71724788,0.00000236,0x00,0x00
"SPI","result",24.71725124,0.00000236,0x00,0xFF
"SPI","result",24.7172546,0.00000236,0x00,0xF4
"SPI","result",24.71725796,0.00000236,0x00,0xFF
"SPI","result",24.71726132,0.00000236,0x00,0xFF
"SPI","result",24.71726468,0.00000236,0x00,0xFE
"SPI","result",24.71726804,0.00000236,0x00,0xFD
"SPI","result",24.7172714,0.00000236,0x00,0xFF
"SPI","result",24.71727476,0.00000236,0x00,0xF6
"SPI","result",24.71727812,0.00000236,0x00,0xFF
"SPI","result",24.71728148,0.00000236,0x00,0xFE
"SPI","disable",24.7172845,0.00000002,,
"SPI","enable",24.71728624,0.00000002,,
"SPI","result",24.71728674,0.00000236,0x7F,0xFF
"SPI","result",24.71728992,0.00000236,0x00,0xFF
"SPI","disable",24.71729262,0.00000002,,
"SPI","enable",24.71729324,0.00000002,,
"SPI","result",24.7172937,0.00000234,0xF2,0xFF
"SPI","result",24.717297,0.00000236,0x00,0xFE
"SPI","result",24.71730036,0.00000236,0x00,0xFC
"SPI","result",24.71730372,0.00000236,0x00,0xFF
"SPI","result",24.71730708,0.00000236,0x00,0xF7
"SPI","result",24.71731044,0.00000236,0x00,0xFF
"SPI","result",24.7173138,0.00000236,0x00,0xFF
"SPI","result",24.71731716,0.00000236,0x00,0xFE
"SPI","result",24.71732052,0.00000236,0x00,0xF9
"SPI","result",24.71732388,0.00000236,0x00,0xFF
"SPI","result",24.71732724,0.00000236,0x00,0xF7
"SPI","result",24.7173306,0.00000236,0x00,0x00
"SPI","result",24.71733396,0.00000236,0x00,0x00
"SPI","disable",24.71733698,0.00000002,,
"SPI","enable",24.7173387,0.00000002,,
"SPI","result",24.71733922,0.00000236,0x7F,0xFF
"SPI","result",24.71734238,0.00000236,0x00,0xFF
"SPI","disable",24.7173451,0.00000002,,
"SPI","enable",24.71734572,0.00000002,,
"SPI","result",24.71734616,0.00000236,0xF2,0xFF
"SPI","result",24.71734948,0.00000236,0x00,0xFE
"SPI","result",24.71735284,0.00000236,0x00,0xF8
"SPI","result",24.7173562,0.00000236,0x00,0xFF
"SPI","result",24.71735956,0.00000234,0x00,0xF6
"SPI","result",24.7173629,0.00000236,0x00,0x00
"SPI","result",24.71736626,0.00000236,0x00,0x03
"SPI","result",24.71736962,0.00000236,0x00,0xFE
"SPI","result",24.71737298,0.00000236,0x00,0xF9
"SPI","result",24.71737634,0.00000236,0x00,0xFF
"SPI","result",24.7173797,0.00000236,0x00,0xF4
"SPI","result",24.71738306,0.00000236,0x00,0x00
"SPI","result",24.71738642,0.00000236,0x00,0x05
"SPI","disable",24.71738944,0.00000002,,
"SPI","enable",24.71739118,0.00000002,,
"SPI","result",24.71739168,0.00000236,0x7F,0xFF
"SPI","result",24.71739486,0.00000236,0x00,0xFF
"SPI","disable",24.71739758,0.00000002,,
"SPI","enable",24.71739818,0.00000002,,
"SPI","result",24.71739864,0.00000236,0xF2,0xFF
"SPI","result",24.71740194,0.00000236,0x00,0xFE
"SPI","result",24.7174053,0.00000236,0x00,0xF9
"SPI","result",24.71740866,0.00000236,0x00,0xFF
"SPI","result",24.71741202,0.00000236,0x00,0xF5
"SPI","result",24.71741538,0.00000236,0x00,0x00
"SPI","result",24.71741874,0.00000236,0x00,0x06
"SPI","result",24.7174221,0.00000236,0x00,0xFE
"SPI","result",24.71742546,0.00000236,0x00,0xFA
"SPI","result",24.71742882,0.00000236,0x00,0xFF
"SPI","result",24.71743218,0.00000236,0x00,0xF4
"SPI","result",24.71743554,0.00000236,0x00,0x00
"SPI","result",24.7174389,0.00000236,0x00,0x06
"SPI","disable",24.71744192,0.00000002,,
"SPI","enable",24.71744366,0.00000002,,
"SPI","result",24.71744416,0.00000236,0x7F,0xFF
"SPI","result",24.71744734,0.00000236,0x00,0xFF
"SPI","disable",24.71745004,0.00000002,,
"SPI","enable",24.71745066,0.00000002,,
"SPI","result",24.71745112,0.00000236,0xF2,0xFF
"SPI","result",24.71745442,0.00000236,0x00,0xFE
"SPI","result",24.71745778,0.00000236,0x00,0xF9
"SPI","result",24.71746114,0.00000236,0x00,0xFF
"SPI","result",24.7174645,0.00000236,0x00,0xF3
"SPI","result",24.71746786,0.00000236,0x00,0x00
"SPI","result",24.71747122,0.00000236,0x00,0x03
"SPI","result",24.71747458,0.00000236,0x00,0xFE
"SPI","result",24.71747794,0.00000236,0x00,0xFA
"SPI","result",24.7174813,0.00000236,0x00,0xFF
"SPI","result",24.71748466,0.00000236,0x00,0xF0
"SPI","result",24.71748802,0.00000236,0x00,0x00
"SPI","result",24.71749138,0.00000236,0x00,0x02
"SPI","disable",24.7174944,0.00000002,,
"SPI","enable",24.71749614,0.00000002,,
"SPI","result",24.71749664,0.00000236,0x7F,0xFF
"SPI","result",24.71749982,0.00000236,0x00,0xFF
"SPI","disable",24.71750252,0.00000002,,
"SPI","enable",24.71750314,0.00000002,,
"SPI","result",24.71750358,0.00000236,0xF2,0xFF
"SPI","result",24.7175069,0.00000236,0x00,0xFE
"SPI","result",24.71751026,0.00000236,0x00,0xFB
"SPI","result",24.71751362,0.00000236,0x00,0xFF
"SPI","result",24.71751698,0.00000236,0x00,0xF0
"SPI","result",24.71752034,0.00000236,0x00,0x00
"SPI","result",24.7175237,0.00000236,0x00,0x01
"SPI","result",24.71752706,0.00000234,0x00,0xFE
"SPI","result",24.7175304,0.00000236,0x00,0xFB
"SPI","result",24.71753376,0.00000236,0x00,0xFF
"SPI","result",24.71753712,0.00000236,0x00,0xED
"SPI","result",24.71754048,0.00000236,0x00,0x00
"SPI","result",24.71754384,0.00000236,0x00,0x03
"SPI","disable",24.71754686,0.00000002,,
"SPI","enable",24.7175486,0.00000002,,
"SPI","result",24.7175491,0.00000236,0x7F,0xFF
"SPI","result",24.71755228,0.00000236,0x00,0xFF
"SPI","disable",24.717555,0.00000002,,
"SPI","enable",24.71755562,0.00000002,,
"SPI","result",24.71755606,0.00000236,0xF2,0xFF
"SPI","result",24.71755936,0.00000236,0x00,0xFE
"SPI","result",24.71756272,0.00000236,0x00,0xFB
"SPI","result",24.71756608,0.00000236,0x00,0xFF
"SPI","result",24.71756944,0.00000236,0x00,0xEE
"SPI","result",24.7175728,0.00000236,0x00,0x00
"SPI","result",24.71757616,0.00000236,0x00,0x02
"SPI","result",24.71757952,0.00000236,0x00,0xFE
"SPI","result",24.71758288,0.00000236,0x00,0xFB
"SPI","result",24.71758624,0.00000236,0x00,0xFF
"SPI","result",24.7175896,0.00000236,0x00,0xED
"SPI","result",24.71759296,0.00000236,0x00,0x00
"SPI","result",24.71759632,0.00000236,0x00,0x03
"SPI","disable",24.71759934,0.00000002,,
"SPI","enable",24.71760108,0.00000002,,
"SPI","result",24.71760158,0.00000236,0x7F,0xFF
"SPI","result",24.71760476,0.00000236,0x00,0xFF
"SPI","disable",24.71760746,0.00000002,,
"SPI","enable",24.71760808,0.00000002,,
"SPI","result",24.71760854,0.00000236,0xF2,0xFF
"SPI","result",24.71761184,0.00000236,0x00,0xFE
"SPI","result",24.7176152,0.00000236,0x00,0xFB
"SPI","result",24.71761856,0.00000236,0x00,0xFF
"SPI","result",24.71762192,0.00000236,0x00,0xEE
"SPI","result",24.71762528,0.00000236,0x00,0x00
"SPI","result",24.71762864,0.00000236,0x00,0x04
"SPI","result",24.717632,0.00000236,0x00,0xFE
"SPI","result",24.71763536,0.00000236,0x00,0xFA
"SPI","result",24.71763872,0.00000236,0x00,0xFF
"SPI","result",24.71764208,0.00000236,0x00,0xEE
"SPI","result",24.71764544,0.00000236,0x00,0x00
"SPI","result",24.7176488,0.00000236,0x00,0x05
"SPI","disable",24.71765182,0.00000002,,
"SPI","enable",24.71765356,0.00000002,,
"SPI","result",24.71765406,0.00000236,0x7F,0xFF
"SPI","result",24.71765724,0.00000236,0x00,0xFF
"SPI","disable",24.71765994,0.00000002,,
"SPI","enable",24.71766056,0.00000002,,
"SPI","result",24.717661,0.00000236,0xF2,0xFF
"SPI","result",24.71766432,0.00000236,0x00,0xFE
"SPI","result",24.71766768,0.00000236,0x00,0xFC
"SPI","result",24.71767104,0.00000236,0x00,0xFF
"SPI","result",24.7176744,0.00000236,0x00,0xF0
"SPI","result",24.71767776,0.00000236,0x00,0x00
"SPI","result",24.71768112,0.00000236,0x00,0x03
"SPI","result",24.71768448,0.00000236,0x00,0xFE
"SPI","result",24.71768784,0.00000236,0x00,0xFE
"SPI","result",24.7176912,0.00000236,0x00,0xFF
"SPI","result",24.71769456,0.00000234,0x00,0xF1
"SPI","result",24.71769792,0.00000234,0x00,0x00
"SPI","result",24.71770126,0.00000236,0x00,0x03
"SPI","disable",24.71770428,0.00000002,,
"SPI","enable",24.71770602,0.00000002,,
"SPI","result",24.71770654,0.00000234,0x7F,0xFF
"SPI","result",24.7177097,0.00000236,0x00,0xFF
"SPI","disable",24.71771242,0.00000002,,
"SPI","enable",24.71771304,0.00000002,,
"SPI","result",24.71771348,0.00000236,0xF2,0xFF
"SPI","result",24.7177168,0.00000234,0x00,0xFE
"SPI","result",24.71772014,0.00000236,0x00,0xFB
"SPI","result",24.7177235,0.00000236,0x00,0xFF
"SPI","result",24.71772686,0.00000236,0x00,0xF3
"SPI","result",24.71773022,0.00000236,0x00,0x00
"SPI","result",24.71773358,0.00000236,0x00,0x03
"SPI","result",24.71773694,0.00000236,0x00,0xFE
"SPI","result",24.7177403,0.00000236,0x00,0xF9
"SPI","result",24.71774366,0.00000236,0x00,0xFF
"SPI","result",24.71774702,0.00000236,0x00,0xF4
"SPI","result",24.71775038,0.00000236,0x00,0x00
"SPI","result",24.71775374,0.00000236,0x00,0x01
"SPI","disable",24.71775676,0.00000002,,
"SPI","enable",24.7177585,0.00000002,,
"SPI","result",24.717759,0.00000236,0x7F,0xFF
"SPI","result",24.71776218,0.00000236,0x00,0xFF
"SPI","disable",24.71776488,0.00000002,,
"SPI","enable",24.7177655,0.00000002,,
"SPI","result",24.71776596,0.00000236,0xF2,0xFF
"SPI","result",24.71776926,0.00000236,0x00,0xFE
"SPI","result",24.71777262,0.00000236,0x00,0xF7
"SPI","result",24.71777598,0.00000236,0x00,0xFF
"SPI","result",24.71777934,0.00000236,0x00,0xF3
"SPI","result",24.7177827,0.00000236,0x00,0x00
"SPI","result",24.71778606,0.00000236,0x00,0x00
"SPI","result",24.71778942,0.00000236,0x00,0xFE
"SPI","result",24.71779278,0.00000236,0x00,0xF6
"SPI","result",24.71779614,0.00000236,0x00,0xFF
"SPI","result",24.7177995,0.00000236,0x00,0xF2
"SPI","result",24.71780286,0.00000236,0x00,0x00
"SPI","result",24.71780622,0.00000236,0x00,0x01
"SPI","disable",24.71780924,0.00000002,,
"SPI","enable",24.71781098,0.00000002,,
"SPI","result",24.71781148,0.00000236,0x7F,0xFF
"SPI","result",24.71781466,0.00000236,0x00,0xFF
"SPI","disable",24.71781736,0.00000002,,
"SPI","enable",24.71781798,0.00000002,,
"SPI","result",24.71781844,0.00000236,0xF2,0xFF
"SPI","result",24.71782174,0.00000236,0x00,0xFE
"SPI","result",24.7178251,0.00000236,0x00,0xF8
"SPI","result",24.71782846,0.00000236,0x00,0xFF
"SPI","result",24.71783182,0.00000236,0x00,0xF2
"SPI","result",24.71783518,0.00000236,0x00,0x00
"SPI","result",24.71783854,0.00000236,0x00,0x03
"SPI","result",24.7178419,0.00000236,0x00,0xFE
"SPI","result",24.71784526,0.00000236,0x00,0xF9
"SPI","result",24.71784862,0.00000236,0x00,0xFF
"SPI","result",24.71785198,0.00000236,0x00,0xF1
"SPI","result",24.71785534,0.00000236,0x00,0x00
"SPI","result",24.7178587,0.00000236,0x00,0x03
"SPI","disable",24.71786172,0.00000002,,
"SPI","enable",24.71786346,0.00000002,,
"SPI","result",24.71786396,0.00000236,0x7F,0xFF
"SPI","result",24.71786712,0.00000236,0x00,0xFF
"SPI","disable",24.71786984,0.00000002,,
"SPI","enable",24.71787046,0.00000002,,
"SPI","result",24.7178709,0.00000236,0xF2,0xFF
"SPI","result",24.71787422,0.00000236,0x00,0xFE
"SPI","result",24.71787758,0.00000236,0x00,0xF7
"SPI","result",24.71788094,0.00000236,0x00,0xFF
"SPI","result",24.7178843,0.00000234,0x00,0xF2
"SPI","result",24.71788764,0.00000236,0x00,0x00
"SPI","result",24.717891,0.00000236,0x00,0x00
"SPI","result",24.71789436,0.00000236,0x00,0xFE
"SPI","result",24.71789772,0.00000236,0x00,0xF6
"SPI","result",24.71790108,0.00000236,0x00,0xFF
"SPI","result",24.71790444,0.00000236,0x00,0xF0
"SPI","result",24.7179078,0.00000236,0x00,0xFF
"SPI","result",24.71791116,0.00000236,0x00,0xFF
"SPI","disable",24.71791418,0.00000002,,
"SPI","enable",24.71791592,0.00000002,,
"SPI","result",24.71791642,0.00000236,0x7F,0xFF
"SPI","result",24.7179196,0.00000236,0x00,0xFF
"SPI","disable",24.71792232,0.00000002,,
"SPI","enable",24.71792292,0.00000002,,
"SPI","result",24.71792338,0.00000236,0xF2,0xFF
"SPI","result",24.71792668,0.00000236,0x00,0xFE
"SPI","result",24.71793004,0.00000236,0x00,0xF5
"SPI","result",24.7179334,0.00000236,0x00,0xFF
"SPI","result",24.71793676,0.00000236,0x00,0xF0
"SPI","result",24.71794012,0.00000236,0x00,0xFF
"SPI","result",24.71794348,0.00000236,0x00,0xFE
"SPI","result",24.71794684,0.00000236,0x00,0xFE
"SPI","result",24.7179502,0.00000236,0x00,0xF5
"SPI","result",24.71795356,0.00000236,0x00,0xFF
"SPI","result",24.71795692,0.00000236,0x00,0xF2
"SPI","result",24.71796028,0.00000236,0x00,0xFF
"SPI","result",24.71796364,0.00000236,0x00,0xFC
"SPI","disable",24.71796666,0.00000002,,
"SPI","enable",24.7179684,0.00000002,,
"SPI","result",24.7179689,0.00000236,0x7F,0xFF
"SPI","result",24.71797208,0.00000236,0x00,0xFF
"SPI","disable",24.71797478,0.00000002,,
"SPI","enable",24.7179754,0.00000002,,
"SPI","result",24.71797586,0.00000236,0xF2,0xFF
"SPI","result",24.71797916,0.00000236,0x00,0xFE
"SPI","result",24.71798252,0.00000236,0x00,0xF4
"SPI","result",24.71798588,0.00000236,0x00,0xFF
"SPI","result",24.71798924,0.00000236,0x00,0xF3
"SPI","result",24.7179926,0.00000236,0x00,0xFF
"SPI","result",24.71799596,0.00000236,0x00,0xFB
"SPI","result",24.71799932,0.00000236,0x00,0xFE
"SPI","result",24.71800268,0.00000236,0x00,0xF6
"SPI","result",24.71800604,0.00000236,0x00,0xFF
"SPI","result",24.7180094,0.00000236,0x00,0xF2
"SPI","result",24.71801276,0.00000236,0x00,0xFF
"SPI","result",24.71801612,0.00000236,0x00,0xFC
"SPI","disable",24.71801914,0.00000002,,
"SPI","enable",24.71802088,0.00000002,,
"SPI","result",24.71802138,0.00000236,0x7F,0xFF
"SPI","result",24.71802456,0.00000236,0x00,0xFF
"SPI","disable",24.71802726,0.00000002,,
"SPI","enable",24.71802788,0.00000002,,
"SPI","result",24.71802832,0.00000236,0xF2,0xFF
"SPI","result",24.71803164,0.00000236,0x00,0xFE
"SPI","result",24.718035,0.00000236,0x00,0xF5
"SPI","result",24.71803836,0.00000236,0x00,0xFF
"SPI","result",24.71804172,0.00000236,0x00,0xEF
"SPI","result",24.71804508,0.00000236,0x00,0xFF
"SPI","result",24.71804844,0.00000236,0x00,0xFC
"SPI","result",24.7180518,0.00000234,0x00,0xFE
"SPI","result",24.71805516,0.00000234,0x00,0xF5
"SPI","result",24.7180585,0.00000236,0x00,0xFF
"SPI","result",24.71806186,0.00000236,0x00,0xF0
"SPI","result",24.71806522,0.00000236,0x00,0x00
"SPI","result",24.71806858,0.00000236,0x00,0x00
"SPI","disable",24.7180716,0.00000002,,
"SPI","enable",24.71807334,0.00000002,,
"SPI","result",24.71807384,0.00000236,0x7F,0xFF
"SPI","result",24.71807702,0.00000236,0x00,0xFF
"SPI","disable",24.71807974,0.00000002,,
"SPI","enable",24.71808036,0.00000002,,
"SPI","result",24.7180808,0.00000236,0xF2,0xFF
"SPI","result",24.7180841,0.00000236,0x00,0xFE
"SPI","result",24.71808746,0.00000236,0x00,0xF7
"SPI","result",24.71809082,0.00000236,0x00,0xFF
"SPI","result",24.71809418,0.00000236,0x00,0xEF
"SPI","result",24.71809754,0.00000236,0x00,0x00
"SPI","result",24.7181009,0.00000236,0x00,0x03
"SPI","result",24.71810426,0.00000236,0x00,0xFE
"SPI","result",24.71810762,0.00000236,0x00,0xF9
"SPI","result",24.71811098,0.00000236,0x00,0xFF
"SPI","result",24.71811434,0.00000236,0x00,0xEF
"SPI","result",24.7181177,0.00000236,0x00,0x00
"SPI","result",24.71812106,0.00000236,0x00,0x02
"SPI","disable",24.71812408,0.00000002,,
"SPI","enable",24.71812582,0.00000002,,
"SPI","result",24.71812632,0.00000236,0x7F,0xFF
"SPI","result",24.7181295,0.00000236,0x00,0xFF
"SPI","disable",24.7181322,0.00000002,,
"SPI","enable",24.71813282,0.00000002,,
"SPI","result",24.71813328,0.00000236,0xF2,0xFF
"SPI","result",24.71813658,0.00000236,0x00,0xFE
"SPI","result",24.71813994,0.00000236,0x00,0xF8
"SPI","result",24.7181433,0.00000236,0x00,0xFF
"SPI","result",24.71814666,0.00000236,0x00,0xF0
"SPI","result",24.71815002,0.00000236,0x00,0x00
"SPI","result",24.71815338,0.00000236,0x00,0x02
"SPI","result",24.71815674,0.00000236,0x00,0xFE
"SPI","result",24.7181601,0.00000236,0x00,0xF6
"SPI","result",24.71816346,0.00000236,0x00,0xFF
"SPI","result",24.71816682,0.00000236,0x00,0xEF
"SPI","result",24.71817018,0.00000236,0x00,0x00
"SPI","result",24.71817354,0.00000236,0x00,0x02
"SPI","disable",24.71817656,0.00000002,,
"SPI","enable",24.7181783,0.00000002,,
"SPI","result",24.7181788,0.00000236,0x7F,0xFF
"SPI","result",24.71818198,0.00000236,0x00,0xFF
"SPI","disable",24.71818468,0.00000002,,
"SPI","enable",24.7181853,0.00000002,,
"SPI","result",24.71818574,0.00000236,0xF2,0xFF
"SPI","result",24.71818906,0.00000236,0x00,0xFE
"SPI","result",24.71819242,0.00000236,0x00,0xF6
"SPI","result",24.71819578,0.00000236,0x00,0xFF
"SPI","result",24.71819914,0.00000236,0x00,0xF1
"SPI","result",24.7182025,0.00000236,0x00,0x00
"SPI","result",24.71820586,0.00000236,0x00,0x01
"SPI","result",24.71820922,0.00000236,0x00,0xFE
"SPI","result",24.71821258,0.00000236,0x00,0xF6
"SPI","result",24.71821594,0.00000236,0x00,0xFF
"SPI","result",24.7182193,0.00000236,0x00,0xF4
"SPI","result",24.71822266,0.00000234,0x00,0xFF
"SPI","result",24.718226,0.00000236,0x00,0xFF
"SPI","disable",24.71822902,0.00000002,,
"SPI","enable",24.71823076,0.00000002,,
"SPI","result",24.71823128,0.00000234,0x7F,0xFF
"SPI","result",24.71823444,0.00000236,0x00,0xFF
"SPI","disable",24.71823716,0.00000002,,
"SPI","enable",24.71823778,0.00000002,,
"SPI","result",24.71823822,0.00000236,0xF2,0xFF
"SPI","result",24.71824154,0.00000234,0x00,0xFE
"SPI","result",24.71824488,0.00000236,0x00,0xF6
"SPI","result",24.71824824,0.00000236,0x00,0xFF
"SPI","result",24.7182516,0.00000236,0x00,0xF4
"SPI","result",24.71825496,0.00000236,0x00,0xFF
"SPI","result",24.71825832,0.00000236,0x00,0xFD
"SPI","result",24.71826168,0.00000236,0x00,0xFE
"SPI","result",24.71826504,0.00000236,0x00,0xF9
"SPI","result",24.7182684,0.00000236,0x00,0xFF
"SPI","result",24.71827176,0.00000236,0x00,0xF4
"SPI","result",24.71827512,0.00000236,0x00,0xFF
"SPI","result",24.71827848,0.00000236,0x00,0xFC
"SPI","disable",24.7182815,0.00000002,,
"SPI","enable",24.71828324,0.00000002,,
"SPI","result",24.71828374,0.00000236,0x7F,0xFF
"SPI","result",24.71828692,0.00000236,0x00,0xFF
"SPI","disable",24.71828962,0.00000002,,
"SPI","enable",24.71829024,0.00000002,,
"SPI","result",24.7182907,0.00000236,0xF2,0xFF
"SPI","result",24.718294,0.00000236,0x00,0xFE
"SPI","result",24.71829736,0.00000236,0x00,0xF7
"SPI","result",24.71830072,0.00000236,0x00,0xFF
"SPI","result",24.71830408,0.00000236,0x00,0xF4
"SPI","result",24.71830744,0.00000236,0x00,0xFF
"SPI","result",24.7183108,0.00000236,0x00,0xFB
"SPI","result",24.71831416,0.00000236,0x00,0xFE
"SPI","result",24.71831752,0.00000236,0x00,0xF6
"SPI","result",24.71832088,0.00000236,0x00,0xFF
"SPI","result",24.71832424,0.00000236,0x00,0xF5
"SPI","result",24.7183276,0.00000236,0x00,0xFF
"SPI","result",24.71833096,0.00000236,0x00,0xFC
"SPI","disable",24.71833398,0.00000002,,
"SPI","enable",24.71833572,0.00000002,,
"SPI","result",24.71833622,0.00000236,0x7F,0xFF
"SPI","result",24.7183394,0.00000236,0x00,0xFF
"SPI","disable",24.7183421,0.00000002,,
"SPI","enable",24.71834272,0.00000002,,
"SPI","result",24.71834318,0.00000236,0xF2,0xFF
"SPI","result",24.71834648,0.00000236,0x00,0xFE
"SPI","result",24.71834984,0.00000236,0x00,0xF6
"SPI","result",24.7183532,0.00000236,0x00,0xFF
"SPI","result",24.71835656,0.00000236,0x00,0xF4
"SPI","result",24.71835992,0.00000236,0x00,0xFF
"SPI","result",24.71836328,0.00000236,0x00,0xFF
"SPI","result",24.71836664,0.00000236,0x00,0xFE
"SPI","result",24.71837,0.00000236,0x00,0xF7
"SPI","result",24.71837336,0.00000236,0x00,0xFF
"SPI","result",24.71837672,0.00000236,0x00,0xF4
"SPI","result",24.71838008,0.00000236,0x00,0x00
"SPI","result",24.71838344,0.00000236,0x00,0x01
"SPI","disable",24.71838646,0.00000002,,
"SPI","enable",24.7183882,0.00000002,,
"SPI","result",24.7183887,0.00000236,0x7F,0xFF
"SPI","result",24.71839186,0.00000236,0x00,0xFF
"SPI","disable",24.71839458,0.00000002,,
"SPI","enable",24.7183952,0.00000002,,
"SPI","result",24.71839564,0.00000236,0xF2,0xFF
"SPI","result",24.71839896,0.00000236,0x00,0xFE
"SPI","result",24.71840232,0.00000236,0x00,0xFA
"SPI","result",24.71840568,0.00000236,0x00,0xFF
"SPI","result",24.71840904,0.00000234,0x00,0xF2
"SPI","result",24.7184124,0.00000234,0x00,0x00
"SPI","result",24.71841574,0.00000236,0x00,0x00
"SPI","result",24.7184191,0.00000236,0x00,0xFE
"SPI","result",24.71842246,0.00000236,0x00,0xFB
"SPI","result",24.71842582,0.00000236,0x00,0xFF
"SPI","result",24.71842918,0.00000236,0x00,0xF3
"SPI","result",24.71843254,0.00000236,0x00,0x00
"SPI","result",24.7184359,0.00000236,0x00,0x00
"SPI","disable",24.71843892,0.00000002,,
"SPI","enable",24.71844066,0.00000002,,
"SPI","result",24.71844116,0.00000236,0x7F,0xFF
"SPI","result",24.71844434,0.00000236,0x00,0xFF
"SPI","disable",24.71844706,0.00000002,,
"SPI","enable",24.71844766,0.00000002,,
"SPI","result",24.71844812,0.00000236,0xF2,0xFF
"SPI","result",24.71845142,0.00000236,0x00,0xFE
"SPI","result",24.71845478,0.00000236,0x00,0xF9
"SPI","result",24.71845814,0.00000236,0x00,0xFF
"SPI","result",24.7184615,0.00000236,0x00,0xF1
"SPI","result",24.71846486,0.00000236,0x00,0x00
"SPI","result",24.71846822,0.00000236,0x00,0x00
"SPI","result",24.71847158,0.00000236,0x00,0xFE
"SPI","result",24.71847494,0.00000236,0x00,0xF9
"SPI","result",24.7184783,0.00000236,0x00,0xFF
"SPI","result",24.71848166,0.00000236,0x00,0xF2
"SPI","result",24.71848502,0.00000236,0x00,0x00
"SPI","result",24.71848838,0.00000236,0x00,0x00
"SPI","disable",24.7184914,0.00000002,,
"SPI","enable",24.71849314,0.00000002,,
"SPI","result",24.71849364,0.00000236,0x7F,0xFF
"SPI","result",24.71849682,0.00000236,0x00,0xFF
"SPI","disable",24.71849952,0.00000002,,
"SPI","enable",24.71850014,0.00000002,,
"SPI","result",24.7185006,0.00000236,0xF2,0xFF
"SPI","result",24.7185039,0.00000236,0x00,0xFE
"SPI","result",24.71850726,0.00000236,0x00,0xFB
"SPI","result",24.71851062,0.00000236,0x00,0xFF
"SPI","result",24.71851398,0.00000236,0x00,0xF4
"SPI","result",24.71851734,0.00000236,0x00,0x00
"SPI","result",24.7185207,0.00000236,0x00,0x01
"SPI","result",24.71852406,0.00000236,0x00,0xFE
"SPI","result",24.71852742,0.00000236,0x00,0xFD
"SPI","result",24.71853078,0.00000236,0x00,0xFF
"SPI","result",24.71853414,0.00000236,0x00,0xF4
"SPI","result",24.7185375,0.00000236,0x00,0x00
"SPI","result",24.71854086,0.00000236,0x00,0x01
"SPI","disable",24.71854388,0.00000002,,
"SPI","enable",24.71854562,0.00000002,,
"SPI","result",24.71854612,0.00000236,0x7F,0xFF
"SPI","result",24.7185493,0.00000236,0x00,0xFF
"SPI","disable",24.718552,0.00000002,,
"SPI","enable",24.71855262,0.00000002,,
"SPI","result",24.71855306,0.00000236,0xF2,0xFF
"SPI","result",24.71855638,0.00000236,0x00,0xFE
"SPI","result",24.71855974,0.00000236,0x00,0xFC
"SPI","result",24.7185631,0.00000236,0x00,0xFF
"SPI","result",24.71856646,0.00000236,0x00,0xF3
"SPI","result",24.71856982,0.00000236,0x00,0xFF
"SPI","result",24.71857318,0.00000236,0x00,0xFF
"SPI","result",24.71857654,0.00000236,0x00,0xFE
"SPI","result",24.7185799,0.00000234,0x00,0xFC
"SPI","result",24.71858326,0.00000234,0x00,0xFF
"SPI","result",24.7185866,0.00000236,0x00,0xF2
"SPI","result",24.71858996,0.00000236,0x00,0xFF
"SPI","result",24.71859332,0.00000236,0x00,0xFF
"SPI","disable",24.71859634,0.00000002,,
"SPI","enable",24.71859808,0.00000002,,
"SPI","result",24.71859858,0.00000236,0x7F,0xFF
"SPI","result",24.71860176,0.00000236,0x00,0xFF
"SPI","disable",24.71860448,0.00000002,,
"SPI","enable",24.7186051,0.00000002,,
"SPI","result",24.71860554,0.00000236,0xF2,0xFF
"SPI","result",24.71860884,0.00000236,0x00,0xFE
"SPI","result",24.7186122,0.00000236,0x00,0xFD
"SPI","result",24.71861556,0.00000236,0x00,0xFF
"SPI","result",24.71861892,0.00000236,0x00,0xF5
"SPI","result",24.71862228,0.00000236,0x00,0x00
"SPI","result",24.71862564,0.00000236,0x00,0x00
"SPI","result",24.718629,0.00000236,0x00,0xFE
"SPI","result",24.71863236,0.00000236,0x00,0xFE
"SPI","result",24.71863572,0.00000236,0x00,0xFF
"SPI","result",24.71863908,0.00000236,0x00,0xF6
"SPI","result",24.71864244,0.00000236,0x00,0x00
"SPI","result",24.7186458,0.00000236,0x00,0x00
"SPI","disable",24.71864882,0.00000002,,
"SPI","enable",24.71865056,0.00000002,,
"SPI","result",24.71865106,0.00000236,0x7F,0xFF
"SPI","result",24.71865424,0.00000236,0x00,0xFF
"SPI","disable",24.71865694,0.00000002,,
"SPI","enable",24.71865756,0.00000002,,
"SPI","result",24.71865802,0.00000236,0xF2,0xFF
"SPI","result",24.71866132,0.00000236,0x00,0xFF
"SPI","result",24.71866468,0.00000236,0x00,0x00
"SPI","result",24.71866804,0.00000236,0x00,0xFF
"SPI","result",24.7186714,0.00000236,0x00,0xF5
"SPI","result",24.71867476,0.00000236,0x00,0x00
"SPI","result",24.71867812,0.00000236,0x00,0x02
"SPI","result",24.71868148,0.00000236,0x00,0xFE
"SPI","result",24.71868484,0.00000236,0x00,0xFF
"SPI","result",24.7186882,0.00000236,0x00,0xFF
"SPI","result",24.71869156,0.00000236,0x00,0xF5
"SPI","result",24.71869492,0.00000236,0x00,0x00
"SPI","result",24.71869828,0.00000236,0x00,0x04
"SPI","disable",24.7187013,0.00000002,,
"SPI","enable",24.71870304,0.00000002,,
"SPI","result",24.71870354,0.00000236,0x7F,0xFF
"SPI","result",24.71870672,0.00000236,0x00,0xFF
"SPI","disable",24.71870942,0.00000002,,
"SPI","enable",24.71871004,0.00000002,,
"SPI","result",24.71871048,0.00000236,0xF2,0xFF
"SPI","result",24.7187138,0.00000236,0x00,0xFE
"SPI","result",24.71871716,0.00000236,0x00,0xFB
"SPI","result",24.71872052,0.00000236,0x00,0xFF
"SPI","result",24.71872388,0.00000236,0x00,0xF5
"SPI","result",24.71872724,0.00000236,0x00,0x00
"SPI","result",24.7187306,0.00000236,0x00,0x03
"SPI","result",24.71873396,0.00000236,0x00,0xFE
"SPI","result",24.71873732,0.00000236,0x00,0xF9
"SPI","result",24.71874068,0.00000236,0x00,0xFF
"SPI","result",24.71874404,0.00000236,0x00,0xF2
"SPI","result",24.7187474,0.00000234,0x00,0x00
"SPI","result",24.71875076,0.00000234,0x00,0x06
"SPI","disable",24.71875378,0.00000002,,
"SPI","enable",24.7187555,0.00000002,,
"SPI","result",24.71875602,0.00000234,0x7F,0xFF
"SPI","result",24.71875918,0.00000236,0x00,0xFF
"SPI","disable",24.7187619,0.00000002,,
"SPI","enable",24.71876252,0.00000002,,
"SPI","result",24.71876296,0.00000236,0xF2,0xFF
"SPI","result",24.71876628,0.00000236,0x00,0xFE
"SPI","result",24.71876964,0.00000234,0x00,0xF8
"SPI","result",24.71877298,0.00000236,0x00,0xFF
"SPI","result",24.71877634,0.00000236,0x00,0xF1
"SPI","result",24.7187797,0.00000236,0x00,0x00
"SPI","result",24.71878306,0.00000236,0x00,0x06
"SPI","result",24.71878642,0.00000236,0x00,0xFE
"SPI","result",24.71878978,0.00000236,0x00,0xFA
"SPI","result",24.71879314,0.00000236,0x00,0xFF
"SPI","result",24.7187965,0.00000236,0x00,0xF1
"SPI","result",24.71879986,0.00000236,0x00,0x00
"SPI","result",24.71880322,0.00000236,0x00,0x06
"SPI","disable",24.71880624,0.00000002,,
"SPI","enable",24.71880798,0.00000002,,
"SPI","result",24.71880848,0.00000236,0x7F,0xFF
"SPI","result",24.71881166,0.00000236,0x00,0xFF
"SPI","disable",24.71881436,0.00000002,,
"SPI","enable",24.71881498,0.00000002,,
"SPI","result",24.71881544,0.00000236,0xF2,0xFF
"SPI","result",24.71881874,0.00000236,0x00,0xFE
"SPI","result",24.7188221,0.00000236,0x00,0xFB
"SPI","result",24.71882546,0.00000236,0x00,0xFF
"SPI","result",24.71882882,0.00000236,0x00,0xF0
"SPI","result",24.71883218,0.00000236,0x00,0x00
"SPI","result",24.71883554,0.00000236,0x00,0x04
"SPI","result",24.7188389,0.00000236,0x00,0xFE
"SPI","result",24.71884226,0.00000236,0x00,0xFB
"SPI","result",24.71884562,0.00000236,0x00,0xFF
"SPI","result",24.71884898,0.00000236,0x00,0xF0
"SPI","result",24.71885234,0.00000236,0x00,0x00
"SPI","result",24.7188557,0.00000236,0x00,0x02
"SPI","disable",24.71885872,0.00000002,,
"SPI","enable",24.71886046,0.00000002,,
"SPI","result",24.71886096,0.00000236,0x7F,0xFF
"SPI","result",24.71886414,0.00000236,0x00,0xFF
"SPI","disable",24.71886684,0.00000002,,
"SPI","enable",24.71886746,0.00000002,,
"SPI","result",24.71886792,0.00000236,0xF2,0xFF
"SPI","result",24.71887122,0.00000236,0x00,0xFE
"SPI","result",24.71887458,0.00000236,0x00,0xFC
"SPI","result",24.71887794,0.00000236,0x00,0xFF
"SPI","result",24.7188813,0.00000236,0x00,0xF1
"SPI","result",24.71888466,0.00000236,0x00,0x00
"SPI","result",24.71888802,0.00000236,0x00,0x02
"SPI","result",24.71889138,0.00000236,0x00,0xFE
"SPI","result",24.71889474,0.00000236,0x00,0xFB
"SPI","result",24.7188981,0.00000236,0x00,0xFF
"SPI","result",24.71890146,0.00000236,0x00,0xF1
"SPI","result",24.71890482,0.00000236,0x00,0x00
"SPI","result",24.71890818,0.00000236,0x00,0x04
"SPI","disable",24.7189112,0.00000002,,
"SPI","enable",24.71891294,0.00000002,,
"SPI","result",24.71891344,0.00000236,0x7F,0xFF
"SPI","result",24.7189166,0.00000236,0x00,0xFF
"SPI","disable",24.71891932,0.00000002,,
"SPI","enable",24.71891994,0.00000002,,
"SPI","result",24.71892038,0.00000236,0xF2,0xFF
"SPI","result",24.7189237,0.00000236,0x00,0xFE
"SPI","result",24.71892706,0.00000236,0x00,0xFA
"SPI","result",24.71893042,0.00000236,0x00,0xFF
"SPI","result",24.71893378,0.00000236,0x00,0xF1
"SPI","result",24.7189746,0.00000236,0x00,0x00
"SPI","result",24.71897788,0.00000236,0x00,0x02
"SPI","result",24.71898124,0.00000236,0x00,0xFE
"SPI","result",24.7189846,0.00000236,0x00,0xF7
"SPI","result",24.71898796,0.00000236,0x00,0xFF
"SPI","result",24.71899132,0.00000236,0x00,0xF0
"SPI","result",24.71899468,0.00000236,0x00,0x00
"SPI","result",24.71899804,0.00000236,0x00,0x00
"SPI","disable",24.71900106,0.00000002,,
"SPI","enable",24.71900326,0.00000002,,
"SPI","result",24.71900378,0.00000236,0x7F,0xFF
"SPI","result",24.719007,0.00000236,0x00,0xFF
"SPI","disable",24.71900966,0.00000002,,
"SPI","enable",24.71901038,0.00000002,,
"SPI","result",24.71901082,0.00000236,0xF2,0xFF
"SPI","result",24.71901414,0.00000236,0x00,0xFE
"SPI","result",24.7190175,0.00000236,0x00,0xF4
"SPI","result",24.71902086,0.00000236,0x00,0xFF
"SPI","result",24.71902422,0.00000236,0x00,0xEF
"SPI","result",24.71902758,0.00000236,0x00,0x00
"SPI","result",24.71903094,0.00000236,0x00,0x01
"SPI","result",24.7190343,0.00000236,0x00,0xFE
"SPI","result",24.71903766,0.00000236,0x00,0xF4
"SPI","result",24.71904102,0.00000236,0x00,0xFF
"SPI","result",24.71904438,0.00000234,0x00,0xED
"SPI","result",24.71904772,0.00000236,0x00,0xFF
"SPI","result",24.71905108,0.00000236,0x00,0xFF
"SPI","disable",24.7190541,0.00000002,,
"SPI","enable",24.71905584,0.00000002,,
"SPI","result",24.71905634,0.00000236,0x7F,0xFF
"SPI","result",24.71905952,0.00000236,0x00,0xFF
"SPI","disable",24.71906224,0.00000002,,
"SPI","enable",24.71906286,0.00000002,,
"SPI","result",24.7190633,0.00000236,0xF2,0xFF
"SPI","result",24.71906662,0.00000234,0x00,0xFE
"SPI","result",24.71906996,0.00000236,0x00,0xF6
"SPI","result",24.71907332,0.00000236,0x00,0xFF
"SPI","result",24.71907668,0.00000236,0x00,0xEE
"SPI","result",24.71908004,0.00000236,0x00,0xFF
"SPI","result",24.7190834,0.00000236,0x00,0xFF
"SPI","result",24.71908676,0.00000236,0x00,0xFE
"SPI","result",24.71909012,0.00000236,0x00,0xF8
"SPI","result",24.71909348,0.00000236,0x00,0xFF
"SPI","result",24.71909684,0.00000236,0x00,0xEE
"SPI","result",24.71910022,0.00000236,0x00,0x00
"SPI","result",24.71910366,0.00000236,0x00,0x02
"SPI","disable",24.71910668,0.00000002,,
"SPI","enable",24.71910842,0.00000002,,
"SPI","result",24.71910892,0.00000236,0x7F,0xFF
"SPI","result",24.7191121,0.00000236,0x00,0xFF
"SPI","disable",24.71911476,0.00000002,,
"SPI","enable",24.71911538,0.00000002,,
"SPI","result",24.71911582,0.00000236,0xF2,0xFF
"SPI","result",24.71911914,0.00000236,0x00,0xFE
"SPI","result",24.7191225,0.00000236,0x00,0xF9
"SPI","result",24.71912588,0.00000236,0x00,0xFF
"SPI","result",24.71924498,0.00000234,0x00,0xEF
"SPI","result",24.71924826,0.00000234,0x00,0x00
"SPI","result",24.71925164,0.00000236,0x00,0x04
"SPI","result",24.719255,0.00000236,0x00,0xFE
"SPI","result",24.71925836,0.00000236,0x00,0xF8
"SPI","result",24.71926172,0.00000236,0x00,0xFF
"SPI","result",24.71926508,0.00000236,0x00,0xED
"SPI","result",24.71926844,0.00000236,0x00,0x00
"SPI","result",24.7192718,0.00000236,0x00,0x02
"SPI","disable",24.71927482,0.00000002,,
"SPI","enable",24.7192773,0.00000002,,
"SPI","result",24.7192778,0.00000236,0x7F,0xFF
"SPI","result",24.71928104,0.00000236,0x00,0xFF
"SPI","disable",24.7192837,0.00000002,,
"SPI","enable",24.71928442,0.00000002,,
"SPI","result",24.71928486,0.00000236,0xF2,0xFF
"SPI","result",24.71928818,0.00000236,0x00,0xFE
"SPI","result",24.71929154,0.00000236,0x00,0xF9
"SPI","result",24.7192949,0.00000236,0x00,0xFF
"SPI","result",24.71929826,0.00000236,0x00,0xEC
"SPI","result",24.71930162,0.00000234,0x00,0x00
"SPI","result",24.71930496,0.00000236,0x00,0x00
"SPI","result",24.71930832,0.00000236,0x00,0xFE
"SPI","result",24.71958292,0.00000236,0x00,0xFA
"SPI","result",24.7195862,0.00000236,0x00,0xFF
"SPI","result",24.71958956,0.00000236,0x00,0xE7
"SPI","result",24.71959292,0.00000236,0x00,0x00
"SPI","result",24.71959628,0.00000236,0x00,0x01
"SPI","disable",24.7195993,0.00000002,,
"SPI","enable",24.71960178,0.00000002,,
"SPI","result",24.71960228,0.00000236,0x7F,0xFF
"SPI","result",24.71960552,0.00000236,0x00,0xFF
"SPI","disable",24.71960818,0.00000002,,
"SPI","enable",24.7196089,0.00000002,,
"SPI","result",24.71960934,0.00000236,0xF2,0xFF
"SPI","result",24.71961266,0.00000236,0x00,0xFE
"SPI","result",24.71961602,0.00000236,0x00,0xFB
"SPI","result",24.71961938,0.00000236,0x00,0xFF
"SPI","result",24.71962274,0.00000234,0x00,0xE6
"SPI","result",24.71962608,0.00000236,0x00,0x00
"SPI","result",24.71962944,0.00000236,0x00,0x02
"SPI","result",24.7196328,0.00000236,0x00,0xFE
"SPI","result",24.71963616,0.00000236,0x00,0xFD
"SPI","result",24.71963952,0.00000236,0x00,0xFF
"SPI","result",24.71964288,0.00000236,0x00,0xE8
"SPI","result",24.71964624,0.00000236,0x00,0x00
"SPI","result",24.7196496,0.00000236,0x00,0x02
"SPI","disable",24.71965262,0.00000002,,
"SPI","enable",24.71965436,0.00000002,,
"SPI","result",24.71965486,0.00000236,0x7F,0xFF
"SPI","result",24.71965804,0.00000236,0x00,0xFF
"SPI","disable",24.71966076,0.00000002,,
"SPI","enable",24.71966136,0.00000002,,
"SPI","result",24.71966182,0.00000236,0xF2,0xFF
"SPI","result",24.71966512,0.00000236,0x00,0xFE
"SPI","result",24.71966848,0.00000236,0x00,0xFD
"SPI","result",24.71967184,0.00000236,0x00,0xFF
"SPI","result",24.7196752,0.00000236,0x00,0xEA
"SPI","result",24.71967856,0.00000236,0x00,0x00
"SPI","result",24.71968192,0.00000236,0x00,0x03
"SPI","result",24.71968528,0.00000236,0x00,0xFE
"SPI","result",24.71968864,0.00000236,0x00,0xFD
"SPI","result",24.719692,0.00000236,0x00,0xFF
"SPI","result",24.71969536,0.00000236,0x00,0xED
"SPI","result",24.71969872,0.00000236,0x00,0x00
"SPI","result",24.71970208,0.00000236,0x00,0x03
"SPI","disable",24.7197051,0.00000002,,
"SPI","enable",24.71970684,0.00000002,,
"SPI","result",24.71970734,0.00000236,0x7F,0xFF
"SPI","result",24.71971052,0.00000236,0x00,0xFF
"SPI","disable",24.71971322,0.00000002,,
"SPI","enable",24.71971384,0.00000002,,
"SPI","result",24.7197143,0.00000236,0xF2,0xFF
"SPI","result",24.7197176,0.00000236,0x00,0xFE
"SPI","result",24.71972096,0.00000236,0x00,0xFA
"SPI","result",24.71972432,0.00000236,0x00,0xFF
"SPI","result",24.71972768,0.00000236,0x00,0xEE
"SPI","result",24.71973104,0.00000236,0x00,0x00
"SPI","result",24.7197344,0.00000236,0x00,0x01
"SPI","result",24.71973776,0.00000236,0x00,0xFE
"SPI","result",24.71974112,0.00000236,0x00,0xF8
"SPI","result",24.71974448,0.00000236,0x00,0xFF
"SPI","result",24.71974784,0.00000236,0x00,0xF0
"SPI","result",24.7197512,0.00000236,0x00,0x00
"SPI","result",24.71975456,0.00000236,0x00,0x00
"SPI","disable",24.71975758,0.00000002,,
"SPI","enable",24.71975932,0.00000002,,
"SPI","result",24.71975982,0.00000236,0x7F,0xFF
"SPI","result",24.719763,0.00000236,0x00,0xFF
"SPI","disable",24.7197657,0.00000002,,
"SPI","enable",24.71976632,0.00000002,,
"SPI","result",24.71976676,0.00000236,0xF2,0xFF
"SPI","result",24.71977008,0.00000236,0x00,0xFE
"SPI","result",24.71977344,0.00000236,0x00,0xF9
"SPI","result",24.7197768,0.00000236,0x00,0xFF
"SPI","result",24.71978016,0.00000236,0x00,0xEF
"SPI","result",24.71978352,0.00000236,0x00,0x00
"SPI","result",24.71978688,0.00000236,0x00,0x00
"SPI","result",24.71979024,0.00000234,0x00,0xFE
"SPI","result",24.7197936,0.00000234,0x00,0xF8
"SPI","result",24.71979694,0.00000236,0x00,0xFF
"SPI","result",24.7198003,0.00000236,0x00,0xF0
"SPI","result",24.71980366,0.00000236,0x00,0x00
"SPI","result",24.71980702,0.00000236,0x00,0x00
"SPI","disable",24.71981004,0.00000002,,
"SPI","enable",24.71981178,0.00000002,,
"SPI","result",24.71981228,0.00000236,0x7F,0xFF
"SPI","result",24.71981546,0.00000236,0x00,0xFF
"SPI","disable",24.71981818,0.00000002,,
"SPI","enable",24.7198188,0.00000002,,
"SPI","result",24.71981924,0.00000236,0xF2,0xFF
"SPI","result",24.71982254,0.00000236,0x00,0xFE
"SPI","result",24.7198259,0.00000236,0x00,0xF5
"SPI","result",24.71982926,0.00000236,0x00,0xFF
"SPI","result",24.71983262,0.00000236,0x00,0xEF
"SPI","result",24.71983598,0.00000236,0x00,0x00
"SPI","result",24.71983934,0.00000236,0x00,0x01
"SPI","result",24.7198427,0.00000236,0x00,0xFE
"SPI","result",24.71984606,0.00000236,0x00,0xF5
"SPI","result",24.71984942,0.00000236,0x00,0xFF
"SPI","result",24.71985278,0.00000236,0x00,0xF1
"SPI","result",24.71985614,0.00000236,0x00,0xFF
"SPI","result",24.7198595,0.00000236,0x00,0xFF
"SPI","disable",24.71986252,0.00000002,,
"SPI","enable",24.71986426,0.00000002,,
"SPI","result",24.71986476,0.00000236,0x7F,0xFF
"SPI","result",24.71986794,0.00000236,0x00,0xFF
"SPI","disable",24.71987064,0.00000002,,
"SPI","enable",24.71987126,0.00000002,,
"SPI","result",24.71987172,0.00000236,0xF2,0xFF
"SPI","result",24.71987502,0.00000236,0x00,0xFE
"SPI","result",24.71987838,0.00000236,0x00,0xF7
"SPI","result",24.71988174,0.00000236,0x00,0xFF
"SPI","result",24.7198851,0.00000236,0x00,0xEE
"SPI","result",24.71988846,0.00000236,0x00,0x00
"SPI","result",24.71989182,0.00000236,0x00,0x00
"SPI","result",24.71989518,0.00000236,0x00,0xFE
"SPI","result",24.71989854,0.00000236,0x00,0xF8
"SPI","result",24.7199019,0.00000236,0x00,0xFF
"SPI","result",24.71990526,0.00000236,0x00,0xED
"SPI","result",24.71990862,0.00000236,0x00,0xFF
"SPI","result",24.71991198,0.00000236,0x00,0xFF
"SPI","disable",24.719915,0.00000002,,
"SPI","enable",24.71991674,0.00000002,,
"SPI","result",24.71991724,0.00000236,0x7F,0xFF
"SPI","result",24.71992042,0.00000236,0x00,0xFF
"SPI","disable",24.71992312,0.00000002,,
"SPI","enable",24.71992374,0.00000002,,
"SPI","result",24.71992418,0.00000236,0xF2,0xFF
"SPI","result",24.7199275,0.00000236,0x00,0xFE
"SPI","result",24.71993086,0.00000236,0x00,0xF9
"SPI","result",24.71993422,0.00000236,0x00,0xFF
"SPI","result",24.71993758,0.00000236,0x00,0xEB
"SPI","result",24.71994094,0.00000236,0x00,0xFF
"SPI","result",24.7199443,0.00000236,0x00,0xFE
"SPI","result",24.71994766,0.00000236,0x00,0xFE
"SPI","result",24.71995102,0.00000236,0x00,0xF9
"SPI","result",24.71995438,0.00000236,0x00,0xFF
"SPI","result",24.71995774,0.00000236,0x00,0xEA
"SPI","result",24.7199611,0.00000234,0x00,0xFF
"SPI","result",24.71996444,0.00000236,0x00,0xFA
"SPI","disable",24.71996748,0.00000002,,
"SPI","enable",24.7199692,0.00000002,,
"SPI","result",24.71996972,0.00000234,0x7F,0xFF
"SPI","result",24.71997288,0.00000236,0x00,0xFF
"SPI","disable",24.7199756,0.00000002,,
"SPI","enable",24.71997622,0.00000002,,
"SPI","result",24.71997666,0.00000236,0xF2,0xFF
"SPI","result",24.71997998,0.00000234,0x00,0xFE
"SPI","result",24.71998332,0.00000236,0x00,0xF7
"SPI","result",24.71998668,0.00000236,0x00,0xFF
"SPI","result",24.71999004,0.00000236,0x00,0xEC
"SPI","result",24.7199934,0.00000236,0x00,0xFF
"SPI","result",24.71999676,0.00000236,0x00,0xF8
"SPI","result",24.72000012,0.00000236,0x00,0xFE
"SPI","result",24.72000348,0.00000236,0x00,0xF8
"SPI","result",24.72000684,0.00000236,0x00,0xFF
"SPI","result",24.7200102,0.00000236,0x00,0xEE
"SPI","result",24.72001356,0.00000236,0x00,0xFF
"SPI","result",24.72001692,0.00000236,0x00,0xF7
"SPI","disable",24.72001994,0.00000002,,
"SPI","enable",24.72002168,0.00000002,,
"SPI","result",24.72002218,0.00000236,0x7F,0xFF
"SPI","result",24.72002536,0.00000236,0x00,0xFF
"SPI","disable",24.72002806,0.00000002,,
"SPI","enable",24.72002868,0.00000002,,
"SPI","result",24.72002914,0.00000236,0xF2,0xFF
"SPI","result",24.72003244,0.00000236,0x00,0xFE
"SPI","result",24.7200358,0.00000236,0x00,0xFB
"SPI","result",24.72003916,0.00000236,0x00,0xFF
"SPI","result",24.72004252,0.00000236,0x00,0xED
"SPI","result",24.72004588,0.00000236,0x00,0xFF
"SPI","result",24.72004924,0.00000236,0x00,0xFB
"SPI","result",24.7200526,0.00000236,0x00,0xFE
"SPI","result",24.72005596,0.00000236,0x00,0xFA
"SPI","result",24.72005932,0.00000236,0x00,0xFF
"SPI","result",24.72006268,0.00000236,0x00,0xE9
"SPI","result",24.72006604,0.00000236,0x00,0xFF
"SPI","result",24.7200694,0.00000236,0x00,0xFD
"SPI","disable",24.72007242,0.00000002,,
"SPI","enable",24.72007416,0.00000002,,
"SPI","result",24.72007466,0.00000236,0x7F,0xFF
"SPI","result",24.72007784,0.00000236,0x00,0xFF
"SPI","disable",24.72008054,0.00000002,,
"SPI","enable",24.72008116,0.00000002,,
"SPI","result",24.72008162,0.00000236,0xF2,0xFF
"SPI","result",24.72008492,0.00000236,0x00,0xFE
"SPI","result",24.72008828,0.00000236,0x00,0xF9
"SPI","result",24.72009164,0.00000236,0x00,0xFF
"SPI","result",24.720095,0.00000236,0x00,0xE5
"SPI","result",24.72009836,0.00000236,0x00,0xFF
"SPI","result",24.72010172,0.00000236,0x00,0xFC
"SPI","result",24.72010508,0.00000236,0x00,0xFE
"SPI","result",24.72010844,0.00000236,0x00,0xF8
"SPI","result",24.7201118,0.00000236,0x00,0xFF
"SPI","result",24.72011516,0.00000236,0x00,0xE8
"SPI","result",24.72011852,0.00000236,0x00,0xFF
"SPI","result",24.72012188,0.00000236,0x00,0xFB
"SPI","disable",24.7201249,0.00000002,,
"SPI","enable",24.72012664,0.00000002,,
"SPI","result",24.72012714,0.00000236,0x7F,0xFF
"SPI","result",24.7201303,0.00000236,0x00,0xFF
"SPI","disable",24.72013302,0.00000002,,
"SPI","enable",24.72013364,0.00000002,,
"SPI","result",24.72013408,0.00000236,0xF2,0xFF
"SPI","result",24.7201374,0.00000236,0x00,0xFE
"SPI","result",24.72014076,0.00000236,0x00,0xFA
"SPI","result",24.72014412,0.00000236,0x00,0xFF
"SPI","result",24.72014748,0.00000236,0x00,0xEC
"SPI","result",24.72015084,0.00000234,0x00,0xFF
"SPI","result",24.72015418,0.00000236,0x00,0xFB
"SPI","result",24.72015754,0.00000236,0x00,0xFE
"SPI","result",24.7201609,0.00000236,0x00,0xFC
"SPI","result",24.72016426,0.00000236,0x00,0xFF
"SPI","result",24.72016762,0.00000236,0x00,0xED
"SPI","result",24.72017098,0.00000236,0x00,0xFF
"SPI","result",24.72017434,0.00000236,0x00,0xF9
"SPI","disable",24.72017736,0.00000002,,
"SPI","enable",24.7201791,0.00000002,,
"SPI","result",24.7201796,0.00000236,0x7F,0xFF
"SPI","result",24.72018278,0.00000236,0x00,0xFF
"SPI","disable",24.7201855,0.00000002,,
"SPI","enable",24.7201861,0.00000002,,
"SPI","result",24.72018656,0.00000236,0xF2,0xFF
"SPI","result",24.72018986,0.00000236,0x00,0xFE
"SPI","result",24.72019322,0.00000236,0x00,0xFA
"SPI","result",24.72019658,0.00000236,0x00,0xFF
"SPI","result",24.72019994,0.00000236,0x00,0xEE
"SPI","result",24.7202033,0.00000236,0x00,0xFF
"SPI","result",24.72020666,0.00000236,0x00,0xF9
"SPI","result",24.72021002,0.00000236,0x00,0xFE
"SPI","result",24.72021338,0.00000236,0x00,0xFC
"SPI","result",24.72021674,0.00000236,0x00,0xFF
"SPI","result",24.7202201,0.00000236,0x00,0xF0
"SPI","result",24.72022346,0.00000236,0x00,0xFF
"SPI","result",24.72022682,0.00000236,0x00,0xF9
"SPI","disable",24.72022984,0.00000002,,
"SPI","enable",24.72023158,0.00000002,,
"SPI","result",24.72023208,0.00000236,0x7F,0xFF
"SPI","result",24.72023526,0.00000236,0x00,0xFF
"SPI","disable",24.72023796,0.00000002,,
"SPI","enable",24.72023858,0.00000002,,
"SPI","result",24.72023904,0.00000236,0xF2,0xFF
"SPI","result",24.72024234,0.00000236,0x00,0xFE
"SPI","result",24.7202457,0.00000236,0x00,0xFF
"SPI","result",24.72024906,0.00000236,0x00,0xFF
"SPI","result",24.72025242,0.00000236,0x00,0xF0
"SPI","result",24.72025578,0.00000236,0x00,0xFF
"SPI","result",24.72025914,0.00000236,0x00,0xFC
"SPI","result",24.7202625,0.00000236,0x00,0xFE
"SPI","result",24.72026586,0.00000236,0x00,0xFF
"SPI","result",24.72026922,0.00000236,0x00,0xFF
"SPI","result",24.72027258,0.00000236,0x00,0xEF
"SPI","result",24.72027594,0.00000236,0x00,0xFF
"SPI","result",24.7202793,0.00000236,0x00,0xFE
"SPI","disable",24.72028232,0.00000002,,
"SPI","enable",24.72028406,0.00000002,,
"SPI","result",24.72028456,0.00000236,0x7F,0xFF
"SPI","result",24.72028774,0.00000236,0x00,0xFF
"SPI","disable",24.72029044,0.00000002,,
"SPI","enable",24.72029106,0.00000002,,
"SPI","result",24.7202915,0.00000236,0xF2,0xFF
"SPI","result",24.72029482,0.00000236,0x00,0xFE
"SPI","result",24.72029818,0.00000236,0x00,0xFE
"SPI","result",24.72030154,0.00000236,0x00,0xFF
"SPI","result",24.7203049,0.00000236,0x00,0xEE
"SPI","result",24.72030826,0.00000236,0x00,0xFF
"SPI","result",24.72031162,0.00000236,0x00,0xFF
"SPI","result",24.72031498,0.00000236,0x00,0xFE
"SPI","result",24.72031834,0.00000234,0x00,0xFD
"SPI","result",24.72032168,0.00000236,0x00,0xFF
"SPI","result",24.72032504,0.00000236,0x00,0xEF
"SPI","result",24.7203284,0.00000236,0x00,0xFF
"SPI","result",24.72033176,0.00000236,0x00,0xFE
"SPI","disable",24.72033478,0.00000002,,
"SPI","enable",24.72033652,0.00000002,,
"SPI","result",24.72033702,0.00000236,0x7F,0xFF
"SPI","result",24.7203402,0.00000236,0x00,0xFF
"SPI","disable",24.72034292,0.00000002,,
"SPI","enable",24.72034354,0.00000002,,
"SPI","result",24.72034398,0.00000236,0xF2,0xFF
"SPI","result",24.72034728,0.00000236,0x00,0xFE
"SPI","result",24.72035064,0.00000236,0x00,0xFA
"SPI","result",24.720354,0.00000236,0x00,0xFF
"SPI","result",24.72035736,0.00000236,0x00,0xF1
"SPI","result",24.72036072,0.00000236,0x00,0xFF
"SPI","result",24.72036408,0.00000236,0x00,0xFC
"SPI","result",24.72036744,0.00000236,0x00,0xFE
"SPI","result",24.7203708,0.00000236,0x00,0xFB
"SPI","result",24.72037416,0.00000236,0x00,0xFF
"SPI","result",24.72037752,0.00000236,0x00,0xF0
"SPI","result",24.72038088,0.00000236,0x00,0xFF
"SPI","result",24.72038424,0.00000236,0x00,0xFC
"SPI","disable",24.72038726,0.00000002,,
"SPI","enable",24.720389,0.00000002,,
"SPI","result",24.7203895,0.00000236,0x7F,0xFF
"SPI","result",24.72039268,0.00000236,0x00,0xFF
"SPI","disable",24.72039538,0.00000002,,
"SPI","enable",24.720396,0.00000002,,
"SPI","result",24.72039646,0.00000236,0xF2,0xFF
"SPI","result",24.72039976,0.00000236,0x00,0xFE
"SPI","result",24.72040312,0.00000236,0x00,0xFB
"SPI","result",24.72040648,0.00000236,0x00,0xFF
"SPI","result",24.72040984,0.00000236,0x00,0xF1
"SPI","result",24.7204132,0.00000236,0x00,0xFF
"SPI","result",24.72041656,0.00000236,0x00,0xFB
"SPI","result",24.72041992,0.00000236,0x00,0xFE
"SPI","result",24.72042328,0.00000236,0x00,0xF9
"SPI","result",24.72042664,0.00000236,0x00,0xFF
"SPI","result",24.72043,0.00000236,0x00,0xF3
"SPI","result",24.72043336,0.00000236,0x00,0xFF
"SPI","result",24.72043672,0.00000236,0x00,0xFB
"SPI","disable",24.72043974,0.00000002,,
"SPI","enable",24.72044148,0.00000002,,
"SPI","result",24.72044198,0.00000236,0x7F,0xFF
"SPI","result",24.72044516,0.00000236,0x00,0xFF
"SPI","disable",24.72044786,0.00000002,,
"SPI","enable",24.72044848,0.00000002,,
"SPI","result",24.72044892,0.00000236,0xF2,0xFF
"SPI","result",24.72045224,0.00000236,0x00,0xFE
"SPI","result",24.7204556,0.00000236,0x00,0xF9
"SPI","result",24.72045896,0.00000236,0x00,0xFF
"SPI","result",24.72046232,0.00000236,0x00,0xF3
"SPI","result",24.72046568,0.00000236,0x00,0xFF
"SPI","result",24.72046904,0.00000236,0x00,0xFC
"SPI","result",24.7204724,0.00000236,0x00,0xFE
"SPI","result",24.72047576,0.00000236,0x00,0xFB
"SPI","result",24.72047912,0.00000236,0x00,0xFF
"SPI","result",24.72048248,0.00000236,0x00,0xF1
"SPI","result",24.72048584,0.00000234,0x00,0xFF
"SPI","result",24.72048918,0.00000236,0x00,0xFA
"SPI","disable",24.72049222,0.00000002,,
"SPI","enable",24.72049394,0.00000002,,
"SPI","result",24.72049446,0.00000234,0x7F,0xFF
"SPI","result",24.72049762,0.00000236,0x00,0xFF
"SPI","disable",24.72050034,0.00000002,,
"SPI","enable",24.72050096,0.00000002,,
"SPI","result",24.7205014,0.00000236,0xF2,0xFF
"SPI","result",24.72050472,0.00000234,0x00,0xFE
"SPI","result",24.72050808,0.00000234,0x00,0xFB
"SPI","result",24.72051142,0.00000236,0x00,0xFF
"SPI","result",24.72051478,0.00000236,0x00,0xED
"SPI","result",24.72051814,0.00000236,0x00,0xFF
"SPI","result",24.7205215,0.00000236,0x00,0xFC
"SPI","result",24.72052486,0.00000236,0x00,0xFE
"SPI","result",24.72052822,0.00000236,0x00,0xF9
"SPI","result",24.72053158,0.00000236,0x00,0xFF
"SPI","result",24.72053494,0.00000236,0x00,0xED
"SPI","result",24.7205383,0.00000236,0x00,0xFF
"SPI","result",24.72054166,0.00000236,0x00,0xFC
"SPI","disable",24.72054468,0.00000002,,
"SPI","enable",24.72054642,0.00000002,,
"SPI","result",24.72054692,0.00000236,0x7F,0xFF
"SPI","result",24.7205501,0.00000236,0x00,0xFF
"SPI","disable",24.7205528,0.00000002,,
"SPI","enable",24.72055342,0.00000002,,
"SPI","result",24.72055388,0.00000236,0xF2,0xFF
"SPI","result",24.72055718,0.00000236,0x00,0xFE
"SPI","result",24.72056054,0.00000236,0x00,0xF7
"SPI","result",24.7205639,0.00000236,0x00,0xFF
"SPI","result",24.72056726,0.00000236,0x00,0xEC
"SPI","result",24.72057062,0.00000236,0x00,0xFF
"SPI","result",24.72057398,0.00000236,0x00,0xFB
"SPI","result",24.72057734,0.00000236,0x00,0xFE
"SPI","result",24.7205807,0.00000236,0x00,0xF5
"SPI","result",24.72058406,0.00000236,0x00,0xFF
"SPI","result",24.72058742,0.00000236,0x00,0xED
"SPI","result",24.72059078,0.00000236,0x00,0xFF
"SPI","result",24.72059414,0.00000236,0x00,0xFB
"SPI","disable",24.72059716,0.00000002,,
"SPI","enable",24.7205989,0.00000002,,
"SPI","result",24.7205994,0.00000236,0x7F,0xFF
"SPI","result",24.72060258,0.00000236,0x00,0xFF
"SPI","disable",24.72060528,0.00000002,,
"SPI","enable",24.7206059,0.00000002,,
"SPI","result",24.72060636,0.00000236,0xF2,0xFF
"SPI","result",24.72060966,0.00000236,0x00,0xFE
"SPI","result",24.72061302,0.00000236,0x00,0xF6
"SPI","result",24.72061638,0.00000236,0x00,0xFF
"SPI","result",24.72061974,0.00000236,0x00,0xEA
"SPI","result",24.7206231,0.00000236,0x00,0xFF
"SPI","result",24.72062646,0.00000236,0x00,0xFA
"SPI","result",24.72062982,0.00000236,0x00,0xFE
"SPI","result",24.72063318,0.00000236,0x00,0xF6
"SPI","result",24.72063654,0.00000236,0x00,0xFF
"SPI","result",24.7206399,0.00000236,0x00,0xEA
"SPI","result",24.72064326,0.00000236,0x00,0xFF
"SPI","result",24.72064662,0.00000236,0x00,0xF8
"SPI","disable",24.72064964,0.00000002,,
"SPI","enable",24.72065138,0.00000002,,
"SPI","result",24.72065188,0.00000236,0x7F,0xFF
"SPI","result",24.72065504,0.00000236,0x00,0xFF
"SPI","disable",24.72065776,0.00000002,,
"SPI","enable",24.72065838,0.00000002,,
"SPI","result",24.72065882,0.00000236,0xF2,0xFF
"SPI","result",24.72066214,0.00000236,0x00,0xFE
"SPI","result",24.7206655,0.00000236,0x00,0xF6
"SPI","result",24.72066886,0.00000236,0x00,0xFF
"SPI","result",24.72067222,0.00000236,0x00,0xEA
"SPI","result",24.72067558,0.00000234,0x00,0xFF
"SPI","result",24.72067892,0.00000236,0x00,0xF6
"SPI","result",24.72068228,0.00000236,0x00,0xFE
"SPI","result",24.72068564,0.00000236,0x00,0xF8
"SPI","result",24.720689,0.00000236,0x00,0xFF
"SPI","result",24.72069236,0.00000236,0x00,0xEF
"SPI","result",24.72069572,0.00000236,0x00,0xFF
"SPI","result",24.72069908,0.00000236,0x00,0xF7
"SPI","disable",24.7207021,0.00000002,,
"SPI","enable",24.72070384,0.00000002,,
"SPI","result",24.72070434,0.00000236,0x7F,0xFF
"SPI","result",24.72070752,0.00000236,0x00,0xFF
"SPI","disable",24.72071024,0.00000002,,
"SPI","enable",24.72071084,0.00000002,,
"SPI","result",24.7207113,0.00000236,0xF2,0xFF
"SPI","result",24.7207146,0.00000236,0x00,0xFE
"SPI","result",24.72071796,0.00000236,0x00,0xFA
"SPI","result",24.72072132,0.00000236,0x00,0xFF
"SPI","result",24.72072468,0.00000236,0x00,0xEE
"SPI","result",24.72072804,0.00000236,0x00,0xFF
"SPI","result",24.7207314,0.00000236,0x00,0xFA
"SPI","result",24.72073476,0.00000236,0x00,0xFE
"SPI","result",24.72073812,0.00000236,0x00,0xF9
"SPI","result",24.72074148,0.00000236,0x00,0xFF
"SPI","result",24.72074484,0.00000236,0x00,0xEF
"SPI","result",24.7207482,0.00000236,0x00,0xFF
"SPI","result",24.72075156,0.00000236,0x00,0xFD
"SPI","disable",24.72075458,0.00000002,,
"SPI","enable",24.72075632,0.00000002,,
"SPI","result",24.72075682,0.00000236,0x7F,0xFF
"SPI","result",24.72076,0.00000236,0x00,0xFF
"SPI","disable",24.7207627,0.00000002,,
"SPI","enable",24.72076332,0.00000002,,
"SPI","result",24.72076378,0.00000236,0xF2,0xFF
"SPI","result",24.72076708,0.00000236,0x00,0xFE
"SPI","result",24.72077044,0.00000236,0x00,0xF8
"SPI","result",24.7207738,0.00000236,0x00,0xFF
"SPI","result",24.72077716,0.00000236,0x00,0xF0
"SPI","result",24.72078052,0.00000236,0x00,0xFF
"SPI","result",24.72078388,0.00000236,0x00,0xFD
"SPI","result",24.72078724,0.00000236,0x00,0xFE
"SPI","result",24.7207906,0.00000236,0x00,0xF9
"SPI","result",24.72079396,0.00000236,0x00,0xFF
"SPI","result",24.72079732,0.00000236,0x00,0xEF
"SPI","result",24.72080068,0.00000236,0x00,0xFF
"SPI","result",24.72080404,0.00000236,0x00,0xFE
"SPI","disable",24.72080706,0.00000002,,
"SPI","enable",24.7208088,0.00000002,,
"SPI","result",24.7208093,0.00000236,0x7F,0xFF
"SPI","result",24.72081248,0.00000236,0x00,0xFF
"SPI","disable",24.72081518,0.00000002,,
"SPI","enable",24.7208158,0.00000002,,
"SPI","result",24.72081624,0.00000236,0xF2,0xFF
"SPI","result",24.72081956,0.00000236,0x00,0xFE
"SPI","result",24.72082292,0.00000236,0x00,0xFB
"SPI","result",24.72082628,0.00000236,0x00,0xFF
"SPI","result",24.72082964,0.00000236,0x00,0xF1
"SPI","result",24.720833,0.00000236,0x00,0x00
"SPI","result",24.72083636,0.00000236,0x00,0x00
"SPI","result",24.72083972,0.00000236,0x00,0xFE
"SPI","result",24.72084308,0.00000234,0x00,0xFA
"SPI","result",24.72084642,0.00000236,0x00,0xFF
"SPI","result",24.72084978,0.00000236,0x00,0xF3
"SPI","result",24.72085314,0.00000236,0x00,0xFF
"SPI","result",24.7208565,0.00000236,0x00,0xFE
"SPI","disable",24.72085952,0.00000002,,
"SPI","enable",24.72086126,0.00000002,,
"SPI","result",24.72086176,0.00000236,0x7F,0xFF
"SPI","result",24.72086494,0.00000236,0x00,0xFF
"SPI","disable",24.72086766,0.00000002,,
"SPI","enable",24.72086828,0.00000002,,
"SPI","result",24.72086872,0.00000236,0xF2,0xFF
"SPI","result",24.72087202,0.00000236,0x00,0xFE
"SPI","result",24.72087538,0.00000236,0x00,0xF8
"SPI","result",24.72087874,0.00000236,0x00,0xFF
"SPI","result",24.7208821,0.00000236,0x00,0xF1
"SPI","result",24.72088546,0.00000236,0x00,0xFF
"SPI","result",24.72088882,0.00000236,0x00,0xFF
"SPI","result",24.72089218,0.00000236,0x00,0xFE
"SPI","result",24.72089554,0.00000236,0x00,0xF7
"SPI","result",24.7208989,0.00000236,0x00,0xFF
"SPI","result",24.72090226,0.00000236,0x00,0xF3
"SPI","result",24.72090562,0.00000236,0x00,0xFF
"SPI","result",24.72090898,0.00000236,0x00,0xFD
"SPI","disable",24.720912,0.00000002,,
"SPI","enable",24.72091374,0.00000002,,
"SPI","result",24.72091424,0.00000236,0x7F,0xFF
"SPI","result",24.72091742,0.00000236,0x00,0xFF
"SPI","disable",24.72092012,0.00000002,,
"SPI","enable",24.72092074,0.00000002,,
"SPI","result",24.7209212,0.00000236,0xF2,0xFF
"SPI","result",24.7209245,0.00000236,0x00,0xFE
"SPI","result",24.72092786,0.00000236,0x00,0xF7
"SPI","result",24.72093122,0.00000236,0x00,0xFF
"SPI","result",24.72093458,0.00000236,0x00,0xF6
"SPI","result",24.72093794,0.00000236,0x00,0xFF
"SPI","result",24.7209413,0.00000236,0x00,0xFB
"SPI","result",24.72094466,0.00000236,0x00,0xFE
"SPI","result",24.72094802,0.00000236,0x00,0xF8
"SPI","result",24.72095138,0.00000236,0x00,0xFF
"SPI","result",24.72095474,0.00000236,0x00,0xF7
"SPI","result",24.7209581,0.00000236,0x00,0xFF
"SPI","result",24.72096146,0.00000236,0x00,0xFD
"SPI","disable",24.72096448,0.00000002,,
"SPI","enable",24.72096622,0.00000002,,
"SPI","result",24.72096672,0.00000236,0x7F,0xFF
"SPI","result",24.7209699,0.00000236,0x00,0xFF
"SPI","disable",24.7209726,0.00000002,,
"SPI","enable",24.72097322,0.00000002,,
"SPI","result",24.72097366,0.00000236,0xF2,0xFF
"SPI","result",24.72097698,0.00000236,0x00,0xFE
"SPI","result",24.72098034,0.00000236,0x00,0xF5
"SPI","result",24.7209837,0.00000236,0x00,0xFF
"SPI","result",24.72098706,0.00000236,0x00,0xFB
"SPI","result",24.72099042,0.00000236,0x00,0xFF
"SPI","result",24.72099378,0.00000236,0x00,0xFF
"SPI","result",24.72099714,0.00000236,0x00,0xFE
"SPI","result",24.7210005,0.00000236,0x00,0xF7
"SPI","result",24.72100386,0.00000236,0x00,0xFF
"SPI","result",24.72100722,0.00000236,0x00,0xF9
"SPI","result",24.72101058,0.00000236,0x00,0x00
"SPI","result",24.72101394,0.00000234,0x00,0x00
"SPI","disable",24.72101696,0.00000002,,
"SPI","enable",24.72101868,0.00000002,,
"SPI","result",24.7210192,0.00000234,0x7F,0xFF
"SPI","result",24.72102236,0.00000236,0x00,0xFF
"SPI","disable",24.72102508,0.00000002,,
"SPI","enable",24.7210257,0.00000002,,
"SPI","result",24.72102614,0.00000236,0xF2,0xFF
"SPI","result",24.72102946,0.00000236,0x00,0xFE
"SPI","result",24.72103282,0.00000234,0x00,0xF9
"SPI","result",24.72103616,0.00000236,0x00,0xFF
"SPI","result",24.72103952,0.00000236,0x00,0xF8
"SPI","result",24.72104288,0.00000236,0x00,0x00
"SPI","result",24.72104624,0.00000236,0x00,0x04
"SPI","result",24.7210496,0.00000236,0x00,0xFE
"SPI","result",24.72105296,0.00000236,0x00,0xFB
"SPI","result",24.72105632,0.00000236,0x00,0xFF
"SPI","result",24.72105968,0.00000236,0x00,0xF7
"SPI","result",24.72106304,0.00000236,0x00,0x00
"SPI","result",24.7210664,0.00000236,0x00,0x04
"SPI","disable",24.72106942,0.00000002,,
"SPI","enable",24.72107116,0.00000002,,
"SPI","result",24.72107166,0.00000236,0x7F,0xFF
"SPI","result",24.72107484,0.00000236,0x00,0xFF
"SPI","disable",24.72107754,0.00000002,,
"SPI","enable",24.72107816,0.00000002,,
"SPI","result",24.72107862,0.00000236,0xF2,0xFF
"SPI","result",24.72108192,0.00000236,0x00,0xFE
"SPI","result",24.72108528,0.00000236,0x00,0xFA
"SPI","result",24.72108864,0.00000236,0x00,0xFF
"SPI","result",24.721092,0.00000236,0x00,0xF5
"SPI","result",24.72109536,0.00000236,0x00,0x00
"SPI","result",24.72109872,0.00000236,0x00,0x03
"SPI","result",24.72110208,0.00000236,0x00,0xFE
"SPI","result",24.72110544,0.00000236,0x00,0xFB
"SPI","result",24.7211088,0.00000236,0x00,0xFF
"SPI","result",24.72111216,0.00000236,0x00,0xF6
"SPI","result",24.72111552,0.00000236,0x00,0x00
"SPI","result",24.72111888,0.00000236,0x00,0x01
"SPI","disable",24.7211219,0.00000002,,
"SPI","enable",24.72112364,0.00000002,,
"SPI","result",24.72112414,0.00000236,0x7F,0xFF
"SPI","result",24.72112732,0.00000236,0x00,0xFF
"SPI","disable",24.72113002,0.00000002,,
"SPI","enable",24.72113064,0.00000002,,
"SPI","result",24.7211311,0.00000236,0xF2,0xFF
"SPI","result",24.7211344,0.00000236,0x00,0xFE
"SPI","result",24.72113776,0.00000236,0x00,0xFA
"SPI","result",24.72114112,0.00000236,0x00,0xFF
"SPI","result",24.72114448,0.00000236,0x00,0xF5
"SPI","result",24.72114784,0.00000236,0x00,0xFF
"SPI","result",24.7211512,0.00000236,0x00,0xFF
"SPI","result",24.72115456,0.00000236,0x00,0xFE
"SPI","result",24.72115792,0.00000236,0x00,0xFA
"SPI","result",24.72116128,0.00000236,0x00,0xFF
"SPI","result",24.72116464,0.00000236,0x00,0xF4
"SPI","result",24.721168,0.00000236,0x00,0x00
"SPI","result",24.72117136,0.00000236,0x00,0x00
"SPI","disable",24.72117438,0.00000002,,
"SPI","enable",24.72117612,0.00000002,,
"SPI","result",24.72117662,0.00000236,0x7F,0xFF
"SPI","result",24.72117978,0.00000236,0x00,0xFF
"SPI","disable",24.7211825,0.00000002,,
"SPI","enable",24.72118312,0.00000002,,
"SPI","result",24.72118356,0.00000236,0xF2,0xFF
"SPI","result",24.72118688,0.00000236,0x00,0xFE
"SPI","result",24.72119024,0.00000236,0x00,0xFA
"SPI","result",24.7211936,0.00000236,0x00,0xFF
"SPI","result",24.72119696,0.00000236,0x00,0xF5
"SPI","result",24.72120032,0.00000236,0x00,0x00
"SPI","result",24.72120368,0.00000234,0x00,0x00
"SPI","result",24.72120702,0.00000236,0x00,0xFE
"SPI","result",24.72121038,0.00000236,0x00,0xFA
"SPI","result",24.72121374,0.00000236,0x00,0xFF
"SPI","result",24.7212171,0.00000236,0x00,0xF5
"SPI","result",24.72122046,0.00000236,0x00,0x00
"SPI","result",24.72122382,0.00000236,0x00,0x01
"SPI","disable",24.72122684,0.00000002,,
"SPI","enable",24.72122858,0.00000002,,
"SPI","result",24.72122908,0.00000236,0x7F,0xFF
"SPI","result",24.72123226,0.00000236,0x00,0xFF
"SPI","disable",24.72123498,0.00000002,,
"SPI","enable",24.7212356,0.00000002,,
"SPI","result",24.72123604,0.00000236,0xF2,0xFF
"SPI","result",24.72123934,0.00000236,0x00,0xFE
"SPI","result",24.7212427,0.00000236,0x00,0xFB
"SPI","result",24.72124606,0.00000236,0x00,0xFF
"SPI","result",24.72124942,0.00000236,0x00,0xF3
"SPI","result",24.72125278,0.00000236,0x00,0xFF
"SPI","result",24.72125614,0.00000236,0x00,0xFE
"SPI","result",24.7212595,0.00000236,0x00,0xFE
"SPI","result",24.72126286,0.00000236,0x00,0xFC
"SPI","result",24.72126622,0.00000236,0x00,0xFF
"SPI","result",24.72126958,0.00000236,0x00,0xF3
"SPI","result",24.72127294,0.00000236,0x00,0xFF
"SPI","result",24.7212763,0.00000236,0x00,0xFE
"SPI","disable",24.72127932,0.00000002,,
"SPI","enable",24.72128106,0.00000002,,
"SPI","result",24.72128156,0.00000236,0x7F,0xFF
"SPI","result",24.72128474,0.00000236,0x00,0xFF
"SPI","disable",24.72128744,0.00000002,,
"SPI","enable",24.72128806,0.00000002,,
"SPI","result",24.72128852,0.00000236,0xF2,0xFF
"SPI","result",24.72129182,0.00000236,0x00,0xFE
"SPI","result",24.72129518,0.00000236,0x00,0xF9
"SPI","result",24.72129854,0.00000236,0x00,0xFF
"SPI","result",24.7213019,0.00000236,0x00,0xF3
"SPI","result",24.72130526,0.00000236,0x00,0x00
"SPI","result",24.72130862,0.00000236,0x00,0x00
"SPI","result",24.72131198,0.00000236,0x00,0xFE
"SPI","result",24.72131534,0.00000236,0x00,0xF7
"SPI","result",24.7213187,0.00000236,0x00,0xFF
"SPI","result",24.72132206,0.00000236,0x00,0xF2
"SPI","result",24.72132542,0.00000236,0x00,0x00
"SPI","result",24.72132878,0.00000236,0x00,0x02
"SPI","disable",24.7213318,0.00000002,,
"SPI","enable",24.72133354,0.00000002,,
"SPI","result",24.72133404,0.00000236,0x7F,0xFF
"SPI","result",24.72133722,0.00000236,0x00,0xFF
"SPI","disable",24.72133992,0.00000002,,
"SPI","enable",24.72134054,0.00000002,,
"SPI","result",24.72134098,0.00000236,0xF2,0xFF
"SPI","result",24.7213443,0.00000236,0x00,0xFE
"SPI","result",24.72134766,0.00000236,0x00,0xF6
"SPI","result",24.72135102,0.00000236,0x00,0xFF
"SPI","result",24.72135438,0.00000236,0x00,0xF3
"SPI","result",24.72135774,0.00000236,0x00,0x00
"SPI","result",24.7213611,0.00000236,0x00,0x04
"SPI","result",24.72136446,0.00000236,0x00,0xFE
"SPI","result",24.72136782,0.00000236,0x00,0xF8
"SPI","result",24.72137118,0.00000234,0x00,0xFF
"SPI","result",24.72137452,0.00000236,0x00,0xF4
"SPI","result",24.72137788,0.00000236,0x00,0x00
"SPI","result",24.72138124,0.00000236,0x00,0x02
"SPI","disable",24.72138426,0.00000002,,
"SPI","enable",24.721386,0.00000002,,
"SPI","result",24.7213865,0.00000236,0x7F,0xFF
"SPI","result",24.72138968,0.00000236,0x00,0xFF
"SPI","disable",24.7213924,0.00000002,,
"SPI","enable",24.72139302,0.00000002,,
"SPI","result",24.72139346,0.00000236,0xF2,0xFF
"SPI","result",24.72139676,0.00000236,0x00,0xFE
"SPI","result",24.72140012,0.00000236,0x00,0xF8
"SPI","result",24.72140348,0.00000236,0x00,0xFF
"SPI","result",24.72140684,0.00000236,0x00,0xF2
"SPI","result",24.7214102,0.00000236,0x00,0x00
"SPI","result",24.72141356,0.00000236,0x00,0x03
"SPI","result",24.72141692,0.00000236,0x00,0xFE
"SPI","result",24.72142028,0.00000236,0x00,0xF8
"SPI","result",24.72142364,0.00000236,0x00,0xFF
"SPI","result",24.721427,0.00000236,0x00,0xF0
"SPI","result",24.72143036,0.00000236,0x00,0x00
"SPI","result",24.72143372,0.00000236,0x00,0x06
"SPI","disable",24.72143674,0.00000002,,
"SPI","enable",24.72143848,0.00000002,,
"SPI","result",24.72143898,0.00000236,0x7F,0xFF
"SPI","result",24.72144216,0.00000236,0x00,0xFF
"SPI","disable",24.72144486,0.00000002,,
"SPI","enable",24.72144548,0.00000002,,
"SPI","result",24.72144594,0.00000236,0xF2,0xFF
"SPI","result",24.72144924,0.00000236,0x00,0xFE
"SPI","result",24.7214526,0.00000236,0x00,0xF9
"SPI","result",24.72145596,0.00000236,0x00,0xFF
"SPI","result",24.72145932,0.00000236,0x00,0xF0
"SPI","result",24.72146268,0.00000236,0x00,0x00
"SPI","result",24.72146604,0.00000236,0x00,0x09
"SPI","result",24.7214694,0.00000236,0x00,0xFE
"SPI","result",24.72147276,0.00000236,0x00,0xF6
"SPI","result",24.72147612,0.00000236,0x00,0xFF
"SPI","result",24.72147948,0.00000236,0x00,0xF0
"SPI","result",24.72148284,0.00000236,0x00,0x00
"SPI","result",24.7214862,0.00000236,0x00,0x09
"SPI","disable",24.72148922,0.00000002,,
"SPI","enable",24.72149096,0.00000002,,
"SPI","result",24.72149146,0.00000236,0x7F,0xFF
"SPI","result",24.72149464,0.00000236,0x00,0xFF
"SPI","disable",24.72149734,0.00000002,,
"SPI","enable",24.72149796,0.00000002,,
"SPI","result",24.7214984,0.00000236,0xF2,0xFF
"SPI","result",24.72150172,0.00000236,0x00,0xFE
"SPI","result",24.72150508,0.00000236,0x00,0xF6
"SPI","result",24.72150844,0.00000236,0x00,0xFF
"SPI","result",24.7215118,0.00000236,0x00,0xF1
"SPI","result",24.72151516,0.00000236,0x00,0x00
"SPI","result",24.72151852,0.00000236,0x00,0x08
"SPI","result",24.72152188,0.00000236,0x00,0xFE
"SPI","result",24.72152524,0.00000236,0x00,0xF8
"SPI","result",24.7215286,0.00000236,0x00,0xFF
"SPI","result",24.72153196,0.00000236,0x00,0xF1
"SPI","result",24.72153532,0.00000236,0x00,0x00
"SPI","result",24.72153868,0.00000234,0x00,0x07
"SPI","disable",24.7215417,0.00000002,,
"SPI","enable",24.72154342,0.00000002,,
"SPI","result",24.72154394,0.00000236,0x7F,0xFF
"SPI","result",24.7215471,0.00000236,0x00,0xFF
"SPI","disable",24.72154982,0.00000002,,
"SPI","enable",24.72155044,0.00000002,,
"SPI","result",24.72155088,0.00000236,0xF2,0xFF
"SPI","result",24.7215542,0.00000236,0x00,0xFE
"SPI","result",24.72155756,0.00000236,0x00,0xF8
"SPI","result",24.72156092,0.00000234,0x00,0xFF
"SPI","result",24.72156426,0.00000236,0x00,0xF1
"SPI","result",24.72156762,0.00000236,0x00,0x00
"SPI","result",24.72157098,0.00000236,0x00,0x09
"SPI","result",24.72157434,0.00000236,0x00,0xFE
"SPI","result",24.7215777,0.00000236,0x00,0xFA
"SPI","result",24.72158106,0.00000236,0x00,0xFF
"SPI","result",24.72158442,0.00000236,0x00,0xF0
"SPI","result",24.72158778,0.00000236,0x00,0x00
"SPI","result",24.72159114,0.00000236,0x00,0x08
"SPI","disable",24.72159416,0.00000002,,
"SPI","enable",24.7215959,0.00000002,,
"SPI","result",24.7215964,0.00000236,0x7F,0xFF
"SPI","result",24.72159958,0.00000236,0x00,0xFF
"SPI","disable",24.72160228,0.00000002,,
"SPI","enable",24.7216029,0.00000002,,
"SPI","result",24.72160336,0.00000236,0xF2,0xFF
"SPI","result",24.72160666,0.00000236,0x00,0xFE
"SPI","result",24.72161002,0.00000236,0x00,0xFB
"SPI","result",24.72161338,0.00000236,0x00,0xFF
"SPI","result",24.72161674,0.00000236,0x00,0xF1
"SPI","result",24.7216201,0.00000236,0x00,0x00
"SPI","result",24.72162346,0.00000236,0x00,0x0A
"SPI","result",24.72162682,0.00000236,0x00,0xFE
"SPI","result",24.72163018,0.00000236,0x00,0xF8
"SPI","result",24.72163354,0.00000236,0x00,0xFF
"SPI","result",24.7216369,0.00000236,0x00,0xF3
"SPI","result",24.72164026,0.00000236,0x00,0x00
"SPI","result",24.72164362,0.00000236,0x00,0x0A
"SPI","disable",24.72164664,0.00000002,,
"SPI","enable",24.72164838,0.00000002,,
"SPI","result",24.72164888,0.00000236,0x7F,0xFF
"SPI","result",24.72165206,0.00000236,0x00,0xFF
"SPI","disable",24.72165476,0.00000002,,
"SPI","enable",24.72165538,0.00000002,,
"SPI","result",24.72165584,0.00000236,0xF2,0xFF
"SPI","result",24.72165914,0.00000236,0x00,0xFE
"SPI","result",24.7216625,0.00000236,0x00,0xF8
"SPI","result",24.72166586,0.00000236,0x00,0xFF
"SPI","result",24.72166922,0.00000236,0x00,0xF5
"SPI","result",24.72167258,0.00000236,0x00,0x00
"SPI","result",24.72167594,0.00000236,0x00,0x07
"SPI","result",24.7216793,0.00000236,0x00,0xFE
"SPI","result",24.72168266,0.00000236,0x00,0xF6
"SPI","result",24.72168602,0.00000236,0x00,0xFF
"SPI","result",24.72168938,0.00000236,0x00,0xF6
"SPI","result",24.72169274,0.00000236,0x00,0x00
"SPI","result",24.7216961,0.00000236,0x00,0x07
"SPI","disable",24.72169912,0.00000002,,
"SPI","enable",24.72170086,0.00000002,,
"SPI","result",24.72170136,0.00000236,0x7F,0xFF
"SPI","result",24.72170454,0.00000234,0x00,0xFF
"SPI","disable",24.72170724,0.00000002,,
"SPI","enable",24.72170786,0.00000002,,
"SPI","result",24.7217083,0.00000236,0xF2,0xFF
"SPI","result",24.72171162,0.00000236,0x00,0xFE
"SPI","result",24.72171498,0.00000236,0x00,0xF5
"SPI","result",24.72171834,0.00000236,0x00,0xFF
"SPI","result",24.7217217,0.00000236,0x00,0xF6
"SPI","result",24.72172506,0.00000236,0x00,0x00
"SPI","result",24.72172842,0.00000234,0x00,0x09
"SPI","result",24.72173176,0.00000236,0x00,0xFE
"SPI","result",24.72173512,0.00000236,0x00,0xF5
"SPI","result",24.72173848,0.00000236,0x00,0xFF
"SPI","result",24.72174184,0.00000236,0x00,0xF7
"SPI","result",24.7217452,0.00000236,0x00,0x00
"SPI","result",24.72174856,0.00000236,0x00,0x07
"SPI","disable",24.72175158,0.00000002,,
"SPI","enable",24.72175332,0.00000002,,
"SPI","result",24.72175382,0.00000236,0x7F,0xFF
"SPI","result",24.721757,0.00000236,0x00,0xFF
"SPI","disable",24.72175972,0.00000002,,
"SPI","enable",24.72176034,0.00000002,,
"SPI","result",24.72176078,0.00000236,0xF2,0xFF
"SPI","result",24.72176408,0.00000236,0x00,0xFE
"SPI","result",24.72176744,0.00000236,0x00,0xF6
"SPI","result",24.7217708,0.00000236,0x00,0xFF
"SPI","result",24.72177416,0.00000236,0x00,0xF7
"SPI","result",24.72177752,0.00000236,0x00,0x00
"SPI","result",24.72178088,0.00000236,0x00,0x0A
"SPI","result",24.72178424,0.00000236,0x00,0xFE
"SPI","result",24.7217876,0.00000236,0x00,0xF6
"SPI","result",24.72179096,0.00000236,0x00,0xFF
"SPI","result",24.72179432,0.00000236,0x00,0xF6
"SPI","result",24.72179768,0.00000236,0x00,0x00
"SPI","result",24.72180104,0.00000236,0x00,0x0B
"SPI","disable",24.72180406,0.00000002,,
"SPI","enable",24.7218058,0.00000002,,
"SPI","result",24.7218063,0.00000236,0x7F,0xFF
"SPI","result",24.72180948,0.00000236,0x00,0xFF
"SPI","disable",24.72181218,0.00000002,,
"SPI","enable",24.7218128,0.00000002,,
"SPI","result",24.72181326,0.00000236,0xF2,0xFF
"SPI","result",24.72181656,0.00000236,0x00,0xFE
"SPI","result",24.72181992,0.00000236,0x00,0xF7
"SPI","result",24.72182328,0.00000236,0x00,0xFF
"SPI","result",24.72182664,0.00000236,0x00,0xF6
"SPI","result",24.72183,0.00000236,0x00,0x00
"SPI","result",24.72183336,0.00000236,0x00,0x0A
"SPI","result",24.72183672,0.00000236,0x00,0xFE
"SPI","result",24.72184008,0.00000236,0x00,0xF5
"SPI","result",24.72184344,0.00000236,0x00,0xFF
"SPI","result",24.7218468,0.00000236,0x00,0xF6
"SPI","result",24.72185016,0.00000236,0x00,0x00
"SPI","result",24.72185352,0.00000236,0x00,0x0B
"SPI","disable",24.72185654,0.00000002,,
"SPI","enable",24.72185828,0.00000002,,
"SPI","result",24.72185878,0.00000236,0x7F,0xFF
"SPI","result",24.72186196,0.00000236,0x00,0xFF
"SPI","disable",24.72186466,0.00000002,,
"SPI","enable",24.72186528,0.00000002,,
"SPI","result",24.72186572,0.00000236,0xF2,0xFF
"SPI","result",24.72186904,0.00000236,0x00,0xFE
"SPI","result",24.7218724,0.00000236,0x00,0xF8
"SPI","result",24.72187576,0.00000236,0x00,0xFF
"SPI","result",24.72187912,0.00000236,0x00,0xF2
"SPI","result",24.72188248,0.00000236,0x00,0x00
"SPI","result",24.72188584,0.00000236,0x00,0x0C
"SPI","result",24.7218892,0.00000236,0x00,0xFE
"SPI","result",24.72189256,0.00000236,0x00,0xFA
"SPI","result",24.72189592,0.00000234,0x00,0xFF
"SPI","result",24.72189928,0.00000234,0x00,0xEF
"SPI","result",24.72190262,0.00000236,0x00,0x00
"SPI","result",24.72190598,0.00000236,0x00,0x0B
"SPI","disable",24.721909,0.00000002,,
"SPI","enable",24.72191074,0.00000002,,
"SPI","result",24.72191124,0.00000236,0x7F,0xFF
"SPI","result",24.72191442,0.00000236,0x00,0xFF
"SPI","disable",24.72191714,0.00000002,,
"SPI","enable",24.72191776,0.00000002,,
"SPI","result",24.7219182,0.00000236,0xF2,0xFF
"SPI","result",24.7219215,0.00000236,0x00,0xFE
"SPI","result",24.72192486,0.00000236,0x00,0xFB
"SPI","result",24.72192822,0.00000236,0x00,0xFF
"SPI","result",24.72193158,0.00000236,0x00,0xEE
"SPI","result",24.72193494,0.00000236,0x00,0x00
"SPI","result",24.7219383,0.00000236,0x00,0x0B
"SPI","result",24.72194166,0.00000236,0x00,0xFE
"SPI","result",24.72194502,0.00000236,0x00,0xFA
"SPI","result",24.72194838,0.00000236,0x00,0xFF
"SPI","result",24.72195174,0.00000236,0x00,0xEE
"SPI","result",24.7219551,0.00000236,0x00,0x00
"SPI","result",24.72195846,0.00000236,0x00,0x0A
"SPI","disable",24.72196148,0.00000002,,
"SPI","enable",24.72196322,0.00000002,,
"SPI","result",24.72196372,0.00000236,0x7F,0xFF
"SPI","result",24.7219669,0.00000236,0x00,0xFF
"SPI","disable",24.7219696,0.00000002,,
"SPI","enable",24.72197022,0.00000002,,
"SPI","result",24.72197068,0.00000236,0xF2,0xFF
"SPI","result",24.72197398,0.00000236,0x00,0xFE
"SPI","result",24.72197734,0.00000236,0x00,0xF9
"SPI","result",24.7219807,0.00000236,0x00,0xFF
"SPI","result",24.72198406,0.00000236,0x00,0xED
"SPI","result",24.72198742,0.00000236,0x00,0x00
"SPI","result",24.72199078,0.00000236,0x00,0x0B
"SPI","result",24.72199414,0.00000236,0x00,0xFE
"SPI","result",24.7219975,0.00000236,0x00,0xF8
"SPI","result",24.72200086,0.00000236,0x00,0xFF
"SPI","result",24.72200422,0.00000236,0x00,0xEF
"SPI","result",24.72200758,0.00000236,0x00,0x00
"SPI","result",24.72201094,0.00000236,0x00,0x0C
"SPI","disable",24.72201396,0.00000002,,
"SPI","enable",24.7220157,0.00000002,,
"SPI","result",24.7220162,0.00000236,0x7F,0xFF
"SPI","result",24.72201938,0.00000236,0x00,0xFF
"SPI","disable",24.72202208,0.00000002,,
"SPI","enable",24.7220227,0.00000002,,
"SPI","result",24.72202316,0.00000234,0xF2,0xFF
"SPI","result",24.72202646,0.00000236,0x00,0xFE
"SPI","result",24.72202982,0.00000236,0x00,0xF9
"SPI","result",24.72203318,0.00000236,0x00,0xFF
"SPI","result",24.72203654,0.00000236,0x00,0xF0
"SPI","result",24.7220399,0.00000236,0x00,0x00
"SPI","result",24.72204326,0.00000236,0x00,0x0D
"SPI","result",24.72204662,0.00000236,0x00,0xFE
"SPI","result",24.72204998,0.00000236,0x00,0xFB
"SPI","result",24.72205334,0.00000236,0x00,0xFF
"SPI","result",24.7220567,0.00000236,0x00,0xF0
"SPI","result",24.72206006,0.00000236,0x00,0x00
"SPI","result",24.72206342,0.00000236,0x00,0x0E
"SPI","disable",24.72206644,0.00000002,,
"SPI","enable",24.72206816,0.00000002,,
"SPI","result",24.72206868,0.00000236,0x7F,0xFF
"SPI","result",24.72207184,0.00000236,0x00,0xFF
"SPI","disable",24.72207456,0.00000002,,
"SPI","enable",24.72207518,0.00000002,,
"SPI","result",24.72207562,0.00000236,0xF2,0xFF
"SPI","result",24.72207894,0.00000236,0x00,0xFE
"SPI","result",24.7220823,0.00000236,0x00,0xFB
"SPI","result",24.72208566,0.00000234,0x00,0xFF
"SPI","result",24.722089,0.00000236,0x00,0xEF
"SPI","result",24.72209236,0.00000236,0x00,0x00
"SPI","result",24.72209572,0.00000236,0x00,0x0D
"SPI","result",24.72209908,0.00000236,0x00,0xFE
"SPI","result",24.72210244,0.00000236,0x00,0xF9
"SPI","result",24.7221058,0.00000236,0x00,0xFF
"SPI","result",24.72210916,0.00000236,0x00,0xEF
"SPI","result",24.72211252,0.00000236,0x00,0x00
"SPI","result",24.72211588,0.00000236,0x00,0x0C
"SPI","disable",24.7221189,0.00000002,,
"SPI","enable",24.72212064,0.00000002,,
"SPI","result",24.72212114,0.00000236,0x7F,0xFF
"SPI","result",24.72212432,0.00000236,0x00,0xFF
"SPI","disable",24.72212702,0.00000002,,
"SPI","enable",24.72212764,0.00000002,,
"SPI","result",24.7221281,0.00000236,0xF2,0xFF
"SPI","result",24.7221314,0.00000236,0x00,0xFE
"SPI","result",24.72213476,0.00000236,0x00,0xF6
"SPI","result",24.72213812,0.00000236,0x00,0xFF
"SPI","result",24.72214148,0.00000236,0x00,0xEE
"SPI","result",24.72214484,0.00000236,0x00,0x00
"SPI","result",24.7221482,0.00000236,0x00,0x0A
"SPI","result",24.72215156,0.00000236,0x00,0xFE
"SPI","result",24.72215492,0.00000236,0x00,0xF5
"SPI","result",24.72215828,0.00000236,0x00,0xFF
"SPI","result",24.72216164,0.00000236,0x00,0xEF
"SPI","result",24.722165,0.00000236,0x00,0x00
"SPI","result",24.72216836,0.00000236,0x00,0x0A
"SPI","disable",24.72217138,0.00000002,,
"SPI","enable",24.72217312,0.00000002,,
"SPI","result",24.72217362,0.00000236,0x7F,0xFF
"SPI","result",24.7221768,0.00000236,0x00,0xFF
"SPI","disable",24.7221795,0.00000002,,
"SPI","enable",24.72218012,0.00000002,,
"SPI","result",24.72218058,0.00000236,0xF2,0xFF
"SPI","result",24.72218388,0.00000236,0x00,0xFE
"SPI","result",24.72218724,0.00000236,0x00,0xF6
"SPI","result",24.7221906,0.00000236,0x00,0xFF
"SPI","result",24.72219396,0.00000236,0x00,0xF0
"SPI","result",24.72219732,0.00000236,0x00,0x00
"SPI","result",24.72220068,0.00000236,0x00,0x0A
"SPI","result",24.72220404,0.00000236,0x00,0xFE
"SPI","result",24.7222074,0.00000236,0x00,0xF8
"SPI","result",24.72221076,0.00000236,0x00,0xFF
"SPI","result",24.72221412,0.00000236,0x00,0xEF
"SPI","result",24.72221748,0.00000236,0x00,0x00
"SPI","result",24.72222084,0.00000236,0x00,0x0A
"SPI","disable",24.72222386,0.00000002,,
"SPI","enable",24.7222256,0.00000002,,
"SPI","result",24.7222261,0.00000236,0x7F,0xFF
"SPI","result",24.72222928,0.00000234,0x00,0xFF
"SPI","disable",24.72223198,0.00000002,,
"SPI","enable",24.7222326,0.00000002,,
"SPI","result",24.72223304,0.00000236,0xF2,0xFF
"SPI","result",24.72223636,0.00000236,0x00,0xFE
"SPI","result",24.72223972,0.00000236,0x00,0xFA
"SPI","result",24.72224308,0.00000236,0x00,0xFF
"SPI","result",24.72224644,0.00000236,0x00,0xEE
"SPI","result",24.7222498,0.00000236,0x00,0x00
"SPI","result",24.72225316,0.00000234,0x00,0x0A
"SPI","result",24.72225652,0.00000234,0x00,0xFE
"SPI","result",24.72225986,0.00000236,0x00,0xFC
"SPI","result",24.72226322,0.00000236,0x00,0xFF
"SPI","result",24.72226658,0.00000236,0x00,0xEE
"SPI","result",24.72226994,0.00000236,0x00,0x00
"SPI","result",24.7222733,0.00000236,0x00,0x0D
"SPI","disable",24.72227632,0.00000002,,
"SPI","enable",24.72227806,0.00000002,,
"SPI","result",24.72227856,0.00000236,0x7F,0xFF
"SPI","result",24.72228174,0.00000236,0x00,0xFF
"SPI","disable",24.72228446,0.00000002,,
"SPI","enable",24.72228508,0.00000002,,
"SPI","result",24.72228552,0.00000236,0xF2,0xFF
"SPI","result",24.72228882,0.00000236,0x00,0xFE
"SPI","result",24.72229218,0.00000236,0x00,0xFC
"SPI","result",24.72229554,0.00000236,0x00,0xFF
"SPI","result",24.7222989,0.00000236,0x00,0xEE
"SPI","result",24.72230226,0.00000236,0x00,0x00
"SPI","result",24.72230562,0.00000236,0x00,0x0A
"SPI","result",24.72230898,0.00000236,0x00,0xFE
"SPI","result",24.72231234,0.00000236,0x00,0xFA
"SPI","result",24.7223157,0.00000236,0x00,0xFF
"SPI","result",24.72231906,0.00000236,0x00,0xEE
"SPI","result",24.72232242,0.00000236,0x00,0x00
"SPI","result",24.72232578,0.00000236,0x00,0x08
"SPI","disable",24.7223288,0.00000002,,
"SPI","enable",24.72233054,0.00000002,,
"SPI","result",24.72233104,0.00000236,0x7F,0xFF
"SPI","result",24.72233422,0.00000236,0x00,0xFF
"SPI","disable",24.72233692,0.00000002,,
"SPI","enable",24.72233754,0.00000002,,
"SPI","result",24.722338,0.00000236,0xF2,0xFF
"SPI","result",24.7223413,0.00000236,0x00,0xFE
"SPI","result",24.72234466,0.00000236,0x00,0xF9
"SPI","result",24.72234802,0.00000236,0x00,0xFF
"SPI","result",24.72235138,0.00000236,0x00,0xEC
"SPI","result",24.72235474,0.00000236,0x00,0x00
"SPI","result",24.7223581,0.00000236,0x00,0x07
"SPI","result",24.72236146,0.00000236,0x00,0xFE
"SPI","result",24.72236482,0.00000236,0x00,0xF6
"SPI","result",24.72236818,0.00000236,0x00,0xFF
"SPI","result",24.72237154,0.00000236,0x00,0xED
"SPI","result",24.7223749,0.00000236,0x00,0x00
"SPI","result",24.72237826,0.00000236,0x00,0x07
"SPI","disable",24.72238128,0.00000002,,
"SPI","enable",24.72238302,0.00000002,,
"SPI","result",24.72238352,0.00000236,0x7F,0xFF
"SPI","result",24.7223867,0.00000236,0x00,0xFF
"SPI","disable",24.7223894,0.00000002,,
"SPI","enable",24.72239002,0.00000002,,
"SPI","result",24.72239046,0.00000236,0xF2,0xFF
"SPI","result",24.72239378,0.00000236,0x00,0xFE
"SPI","result",24.72239714,0.00000236,0x00,0xF6
"SPI","result",24.7224005,0.00000236,0x00,0xFF
"SPI","result",24.72240386,0.00000236,0x00,0xF0
"SPI","result",24.72240722,0.00000236,0x00,0x00
"SPI","result",24.72241058,0.00000236,0x00,0x06
"SPI","result",24.72241394,0.00000236,0x00,0xFE
"SPI","result",24.7224173,0.00000236,0x00,0xF5
"SPI","result",24.72242066,0.00000236,0x00,0xFF
"SPI","result",24.72242402,0.00000234,0x00,0xF1
"SPI","result",24.72242736,0.00000236,0x00,0x00
"SPI","result",24.72243072,0.00000236,0x00,0x07
"SPI","disable",24.72243374,0.00000002,,
"SPI","enable",24.72243548,0.00000002,,
"SPI","result",24.72243598,0.00000236,0x7F,0xFF
"SPI","result",24.72243916,0.00000236,0x00,0xFF
"SPI","disable",24.72244188,0.00000002,,
"SPI","enable",24.7224425,0.00000002,,
"SPI","result",24.72244294,0.00000236,0xF2,0xFF
"SPI","result",24.72244624,0.00000236,0x00,0xFE
"SPI","result",24.7224496,0.00000236,0x00,0xF5
"SPI","result",24.72245296,0.00000236,0x00,0xFF
"SPI","result",24.72245632,0.00000236,0x00,0xF1
"SPI","result",24.72245968,0.00000236,0x00,0x00
"SPI","result",24.72246304,0.00000236,0x00,0x07
"SPI","result",24.7224664,0.00000236,0x00,0xFE
"SPI","result",24.72246976,0.00000236,0x00,0xF4
"SPI","result",24.72247312,0.00000236,0x00,0xFF
"SPI","result",24.72247648,0.00000236,0x00,0xF0
"SPI","result",24.72247984,0.00000236,0x00,0x00
"SPI","result",24.7224832,0.00000236,0x00,0x06
"SPI","disable",24.72248622,0.00000002,,
"SPI","enable",24.72248796,0.00000002,,
"SPI","result",24.72248846,0.00000236,0x7F,0xFF
"SPI","result",24.72249164,0.00000236,0x00,0xFF
"SPI","disable",24.72249434,0.00000002,,
"SPI","enable",24.72249496,0.00000002,,
"SPI","result",24.72249542,0.00000236,0xF2,0xFF
"SPI","result",24.72249872,0.00000236,0x00,0xFE
"SPI","result",24.72250208,0.00000236,0x00,0xF4
"SPI","result",24.72250544,0.00000236,0x00,0xFF
"SPI","result",24.7225088,0.00000236,0x00,0xF0
"SPI","result",24.72251216,0.00000236,0x00,0x00
"SPI","result",24.72251552,0.00000236,0x00,0x07
"SPI","result",24.72251888,0.00000236,0x00,0xFE
"SPI","result",24.72252224,0.00000236,0x00,0xF7
"SPI","result",24.7225256,0.00000236,0x00,0xFF
"SPI","result",24.72252896,0.00000236,0x00,0xED
"SPI","result",24.72253232,0.00000236,0x00,0x00
"SPI","result",24.72253568,0.00000236,0x00,0x05
"SPI","disable",24.7225387,0.00000002,,
"SPI","enable",24.72254044,0.00000002,,
"SPI","result",24.72254094,0.00000236,0x7F,0xFF
"SPI","result",24.72254412,0.00000236,0x00,0xFF
"SPI","disable",24.72254682,0.00000002,,
"SPI","enable",24.72254744,0.00000002,,
"SPI","result",24.7225479,0.00000234,0xF2,0xFF
"SPI","result",24.7225512,0.00000236,0x00,0xFE
"SPI","result",24.72255456,0.00000236,0x00,0xFA
"SPI","result",24.72255792,0.00000236,0x00,0xFF
"SPI","result",24.72256128,0.00000236,0x00,0xEE
"SPI","result",24.72256464,0.00000236,0x00,0x00
"SPI","result",24.722568,0.00000236,0x00,0x05
"SPI","result",24.72257136,0.00000236,0x00,0xFE
"SPI","result",24.72257472,0.00000236,0x00,0xFA
"SPI","result",24.72257808,0.00000236,0x00,0xFF
"SPI","result",24.72258144,0.00000236,0x00,0xEF
"SPI","result",24.7225848,0.00000236,0x00,0x00
"SPI","result",24.72258816,0.00000236,0x00,0x07
"SPI","disable",24.72259118,0.00000002,,
"SPI","enable",24.7225929,0.00000002,,
"SPI","result",24.72259342,0.00000236,0x7F,0xFF
"SPI","result",24.72259658,0.00000236,0x00,0xFF
"SPI","disable",24.7225993,0.00000002,,
"SPI","enable",24.72259992,0.00000002,,
"SPI","result",24.72260036,0.00000236,0xF2,0xFF
"SPI","result",24.72260368,0.00000236,0x00,0xFE
"SPI","result",24.72260704,0.00000236,0x00,0xFA
"SPI","result",24.7226104,0.00000236,0x00,0xFF
"SPI","result",24.72261376,0.00000234,0x00,0xED
"SPI","result",24.7226171,0.00000236,0x00,0x00
"SPI","result",24.72262046,0.00000236,0x00,0x07
"SPI","result",24.72262382,0.00000236,0x00,0xFE
"SPI","result",24.72262718,0.00000236,0x00,0xFB
"SPI","result",24.72263054,0.00000236,0x00,0xFF
"SPI","result",24.7226339,0.00000236,0x00,0xEF
"SPI","result",24.72263726,0.00000236,0x00,0x00
"SPI","result",24.72264062,0.00000236,0x00,0x07
"SPI","disable",24.72264364,0.00000002,,
"SPI","enable",24.72264538,0.00000002,,
"SPI","result",24.72264588,0.00000236,0x7F,0xFF
"SPI","result",24.72264906,0.00000236,0x00,0xFF
"SPI","disable",24.72265178,0.00000002,,
"SPI","enable",24.72265238,0.00000002,,
"SPI","result",24.72265284,0.00000236,0xF2,0xFF
"SPI","result",24.72265614,0.00000236,0x00,0xFE
"SPI","result",24.7226595,0.00000236,0x00,0xFD
"SPI","result",24.72266286,0.00000236,0x00,0xFF
"SPI","result",24.72266622,0.00000236,0x00,0xEF
"SPI","result",24.72266958,0.00000236,0x00,0x00
"SPI","result",24.72267294,0.00000236,0x00,0x06
"SPI","result",24.7226763,0.00000236,0x00,0xFE
"SPI","result",24.72267966,0.00000236,0x00,0xFC
"SPI","result",24.72268302,0.00000236,0x00,0xFF
"SPI","result",24.72268638,0.00000236,0x00,0xF0
"SPI","result",24.72268974,0.00000236,0x00,0x00
"SPI","result",24.7226931,0.00000236,0x00,0x03
"SPI","disable",24.72269612,0.00000002,,
"SPI","enable",24.72269786,0.00000002,,
"SPI","result",24.72269836,0.00000236,0x7F,0xFF
"SPI","result",24.72270154,0.00000236,0x00,0xFF
"SPI","disable",24.72270424,0.00000002,,
"SPI","enable",24.72270486,0.00000002,,
"SPI","result",24.72270532,0.00000236,0xF2,0xFF
"SPI","result",24.72270862,0.00000236,0x00,0xFE
"SPI","result",24.72271198,0.00000236,0x00,0xFC
"SPI","result",24.72271534,0.00000236,0x00,0xFF
"SPI","result",24.7227187,0.00000236,0x00,0xEE
"SPI","result",24.72272206,0.00000236,0x00,0x00
"SPI","result",24.72272542,0.00000236,0x00,0x03
"SPI","result",24.72272878,0.00000236,0x00,0xFE
"SPI","result",24.72273214,0.00000236,0x00,0xFE
"SPI","result",24.7227355,0.00000236,0x00,0xFF
"SPI","result",24.72273886,0.00000236,0x00,0xF0
"SPI","result",24.72274222,0.00000236,0x00,0x00
"SPI","result",24.72274558,0.00000236,0x00,0x00
"SPI","disable",24.7227486,0.00000002,,
"SPI","enable",24.72275034,0.00000002,,
"SPI","result",24.72275084,0.00000236,0x7F,0xFF
"SPI","result",24.72275402,0.00000236,0x00,0xFF
"SPI","disable",24.72275672,0.00000002,,
"SPI","enable",24.72275734,0.00000002,,
"SPI","result",24.72275778,0.00000236,0xF2,0xFF
"SPI","result",24.7227611,0.00000236,0x00,0xFE
"SPI","result",24.72276446,0.00000236,0x00,0xFD
"SPI","result",24.72276782,0.00000236,0x00,0xFF
"SPI","result",24.72277118,0.00000236,0x00,0xF1
"SPI","result",24.72277454,0.00000236,0x00,0xFF
"SPI","result",24.7227779,0.00000236,0x00,0xFE
"SPI","result",24.72278126,0.00000234,0x00,0xFE
"SPI","result",24.7227846,0.00000236,0x00,0xFC
"SPI","result",24.72278796,0.00000236,0x00,0xFF
"SPI","result",24.72279132,0.00000236,0x00,0xEF
"SPI","result",24.72279468,0.00000236,0x00,0xFF
"SPI","result",24.72279804,0.00000236,0x00,0xFE
"SPI","disable",24.72280106,0.00000002,,
"SPI","enable",24.7228028,0.00000002,,
"SPI","result",24.7228033,0.00000236,0x7F,0xFF
"SPI","result",24.72280648,0.00000236,0x00,0xFF
"SPI","disable",24.7228092,0.00000002,,
"SPI","enable",24.72280982,0.00000002,,
"SPI","result",24.72281026,0.00000236,0xF2,0xFF
"SPI","result",24.72281356,0.00000236,0x00,0xFE
"SPI","result",24.72281692,0.00000236,0x00,0xFB
"SPI","result",24.72282028,0.00000236,0x00,0xFF
"SPI","result",24.72282364,0.00000236,0x00,0xEF
"SPI","result",24.722827,0.00000236,0x00,0xFF
"SPI","result",24.72283036,0.00000236,0x00,0xFD
"SPI","result",24.72283372,0.00000236,0x00,0xFE
"SPI","result",24.72283708,0.00000236,0x00,0xFA
"SPI","result",24.72284044,0.00000236,0x00,0xFF
"SPI","result",24.7228438,0.00000236,0x00,0xF2
"SPI","result",24.72284716,0.00000236,0x00,0xFF
"SPI","result",24.72285052,0.00000236,0x00,0xFD
"SPI","disable",24.72285354,0.00000002,,
"SPI","enable",24.72285528,0.00000002,,
"SPI","result",24.72285578,0.00000236,0x7F,0xFF
"SPI","result",24.72285896,0.00000236,0x00,0xFF
"SPI","disable",24.72286166,0.00000002,,
"SPI","enable",24.72286228,0.00000002,,
"SPI","result",24.72286274,0.00000236,0xF2,0xFF
"SPI","result",24.72286604,0.00000236,0x00,0xFE
"SPI","result",24.7228694,0.00000236,0x00,0xFA
"SPI","result",24.72287276,0.00000236,0x00,0xFF
"SPI","result",24.72287612,0.00000236,0x00,0xF2
"SPI","result",24.72287948,0.00000236,0x00,0xFF
"SPI","result",24.72288284,0.00000236,0x00,0xFD
"SPI","result",24.7228862,0.00000236,0x00,0xFE
"SPI","result",24.72288956,0.00000236,0x00,0xFB
"SPI","result",24.72289292,0.00000236,0x00,0xFF
"SPI","result",24.72289628,0.00000236,0x00,0xF2
"SPI","result",24.72289964,0.00000236,0x00,0xFF
"SPI","result",24.722903,0.00000236,0x00,0xFE
"SPI","disable",24.72290602,0.00000002,,
"SPI","enable",24.72290776,0.00000002,,
"SPI","result",24.72290826,0.00000236,0x7F,0xFF
"SPI","result",24.72291144,0.00000236,0x00,0xFF
"SPI","disable",24.72291414,0.00000002,,
"SPI","enable",24.72291476,0.00000002,,
"SPI","result",24.7229152,0.00000236,0xF2,0xFF
"SPI","result",24.72291852,0.00000236,0x00,0xFE
"SPI","result",24.72292188,0.00000236,0x00,0xFA
"SPI","result",24.72292524,0.00000236,0x00,0xFF
"SPI","result",24.7229286,0.00000236,0x00,0xF1
"SPI","result",24.72293196,0.00000236,0x00,0xFF
"SPI","result",24.72293532,0.00000236,0x00,0xFE
"SPI","result",24.72293868,0.00000236,0x00,0xFE
"SPI","result",24.72294204,0.00000236,0x00,0xFD
"SPI","result",24.7229454,0.00000236,0x00,0xFF
"SPI","result",24.72294876,0.00000236,0x00,0xF0
"SPI","result",24.72295212,0.00000234,0x00,0xFF
"SPI","result",24.72295546,0.00000236,0x00,0xFC
"SPI","disable",24.72295848,0.00000002,,
"SPI","enable",24.72296022,0.00000002,,
"SPI","result",24.72296072,0.00000236,0x7F,0xFF
"SPI","result",24.7229639,0.00000236,0x00,0xFF
"SPI","disable",24.72296662,0.00000002,,
"SPI","enable",24.72296724,0.00000002,,
"SPI","result",24.72296768,0.00000236,0xF2,0xFF
"SPI","result",24.722971,0.00000234,0x00,0xFE
"SPI","result",24.72297434,0.00000236,0x00,0xFC
"SPI","result",24.7229777,0.00000236,0x00,0xFF
"SPI","result",24.72298106,0.00000236,0x00,0xF0
"SPI","result",24.72298442,0.00000236,0x00,0xFF
"SPI","result",24.72298778,0.00000236,0x00,0xFE
"SPI","result",24.72299114,0.00000236,0x00,0xFE
"SPI","result",24.7229945,0.00000236,0x00,0xFC
"SPI","result",24.72299786,0.00000236,0x00,0xFF
"SPI","result",24.72300122,0.00000236,0x00,0xF1
"SPI","result",24.72300458,0.00000236,0x00,0xFF
"SPI","result",24.72300794,0.00000236,0x00,0xFE
"SPI","disable",24.72301096,0.00000002,,
"SPI","enable",24.7230127,0.00000002,,
"SPI","result",24.7230132,0.00000236,0x7F,0xFF
"SPI","result",24.72301638,0.00000236,0x00,0xFF
"SPI","disable",24.72301908,0.00000002,,
"SPI","enable",24.7230197,0.00000002,,
"SPI","result",24.72302016,0.00000236,0xF2,0xFF
"SPI","result",24.72302346,0.00000236,0x00,0xFE
"SPI","result",24.72302682,0.00000236,0x00,0xF9
"SPI","result",24.72303018,0.00000236,0x00,0xFF
"SPI","result",24.72303354,0.00000236,0x00,0xF1
"SPI","result",24.7230369,0.00000236,0x00,0xFF
"SPI","result",24.72304026,0.00000236,0x00,0xFE
"SPI","result",24.72304362,0.00000236,0x00,0xFE
"SPI","result",24.72304698,0.00000236,0x00,0xFA
"SPI","result",24.72305034,0.00000236,0x00,0xFF
"SPI","result",24.7230537,0.00000236,0x00,0xF3
"SPI","result",24.72305706,0.00000236,0x00,0xFF
"SPI","result",24.72306042,0.00000236,0x00,0xFC
"SPI","disable",24.72306344,0.00000002,,
"SPI","enable",24.72306518,0.00000002,,
"SPI","result",24.72306568,0.00000236,0x7F,0xFF
"SPI","result",24.72306886,0.00000236,0x00,0xFF
"SPI","disable",24.72307156,0.00000002,,
"SPI","enable",24.72307218,0.00000002,,
"SPI","result",24.72307264,0.00000234,0xF2,0xFF
"SPI","result",24.72307594,0.00000236,0x00,0xFE
"SPI","result",24.7230793,0.00000236,0x00,0xFA
"SPI","result",24.72308266,0.00000236,0x00,0xFF
"SPI","result",24.72308602,0.00000236,0x00,0xF4
"SPI","result",24.72308938,0.00000236,0x00,0xFF
"SPI","result",24.72309274,0.00000236,0x00,0xFD
"SPI","result",24.7230961,0.00000236,0x00,0xFE
"SPI","result",24.72309946,0.00000236,0x00,0xFA
"SPI","result",24.72310282,0.00000236,0x00,0xFF
"SPI","result",24.72310618,0.00000236,0x00,0xF4
"SPI","result",24.72310954,0.00000236,0x00,0xFF
"SPI","result",24.7231129,0.00000236,0x00,0xFD
"SPI","disable",24.72311592,0.00000002,,
"SPI","enable",24.72311764,0.00000002,,
"SPI","result",24.72311816,0.00000236,0x7F,0xFF
"SPI","result",24.72312132,0.00000236,0x00,0xFF
"SPI","disable",24.72312404,0.00000002,,
"SPI","enable",24.72312466,0.00000002,,
"SPI","result",24.7231251,0.00000236,0xF2,0xFF
"SPI","result",24.72312842,0.00000236,0x00,0xFE
"SPI","result",24.72313178,0.00000236,0x00,0xF9
"SPI","result",24.72313514,0.00000236,0x00,0xFF
"SPI","result",24.7231385,0.00000234,0x00,0xF4
"SPI","result",24.72314184,0.00000236,0x00,0xFF
"SPI","result",24.7231452,0.00000236,0x00,0xFD
"SPI","result",24.72314856,0.00000236,0x00,0xFE
"SPI","result",24.72315192,0.00000236,0x00,0xF8
"SPI","result",24.72315528,0.00000236,0x00,0xFF
"SPI","result",24.72315864,0.00000236,0x00,0xF5
"SPI","result",24.723162,0.00000236,0x00,0xFF
"SPI","result",24.72316536,0.00000236,0x00,0xFD
"SPI","disable",24.72316838,0.00000002,,
"SPI","enable",24.72317012,0.00000002,,
"SPI","result",24.72317062,0.00000236,0x7F,0xFF
"SPI","result",24.7231738,0.00000236,0x00,0xFF
"SPI","disable",24.72317652,0.00000002,,
"SPI","enable",24.72317712,0.00000002,,
"SPI","result",24.72317758,0.00000236,0xF2,0xFF
"SPI","result",24.72318088,0.00000236,0x00,0xFE
"SPI","result",24.72318424,0.00000236,0x00,0xF8
"SPI","result",24.7231876,0.00000236,0x00,0xFF
"SPI","result",24.72319096,0.00000236,0x00,0xF8
"SPI","result",24.72319432,0.00000236,0x00,0xFF
"SPI","result",24.72319768,0.00000236,0x00,0xFF
"SPI","result",24.72320104,0.00000236,0x00,0xFE
"SPI","result",24.7232044,0.00000236,0x00,0xF7
"SPI","result",24.72320776,0.00000236,0x00,0xFF
"SPI","result",24.72321112,0.00000236,0x00,0xF9
"SPI","result",24.72321448,0.00000236,0x00,0xFF
"SPI","result",24.72321784,0.00000236,0x00,0xFE
"SPI","disable",24.72322086,0.00000002,,
"SPI","enable",24.7232226,0.00000002,,
"SPI","result",24.7232231,0.00000236,0x7F,0xFF
"SPI","result",24.72322628,0.00000236,0x00,0xFF
"SPI","disable",24.72322898,0.00000002,,
"SPI","enable",24.7232296,0.00000002,,
"SPI","result",24.72323006,0.00000236,0xF2,0xFF
"SPI","result",24.72323336,0.00000236,0x00,0xFE
"SPI","result",24.72323672,0.00000236,0x00,0xF6
"SPI","result",24.72324008,0.00000236,0x00,0xFF
"SPI","result",24.72324344,0.00000236,0x00,0xF9
"SPI","result",24.7232468,0.00000236,0x00,0xFF
"SPI","result",24.72325016,0.00000236,0x00,0xFC
"SPI","result",24.72325352,0.00000236,0x00,0xFE
"SPI","result",24.72325688,0.00000236,0x00,0xF6
"SPI","result",24.72326024,0.00000236,0x00,0xFF
"SPI","result",24.7232636,0.00000236,0x00,0xF9
"SPI","result",24.72326696,0.00000236,0x00,0xFF
"SPI","result",24.72327032,0.00000236,0x00,0xFA
"SPI","disable",24.72327334,0.00000002,,
"SPI","enable",24.72327508,0.00000002,,
"SPI","result",24.72327558,0.00000236,0x7F,0xFF
"SPI","result",24.72327876,0.00000236,0x00,0xFF
"SPI","disable",24.72328146,0.00000002,,
"SPI","enable",24.72328208,0.00000002,,
"SPI","result",24.72328252,0.00000236,0xF2,0xFF
"SPI","result",24.72328584,0.00000236,0x00,0xFE
"SPI","result",24.7232892,0.00000236,0x00,0xF6
"SPI","result",24.72329256,0.00000236,0x00,0xFF
"SPI","result",24.72329592,0.00000236,0x00,0xFA
"SPI","result",24.72329928,0.00000236,0x00,0xFF
"SPI","result",24.72330264,0.00000236,0x00,0xFA
"SPI","result",24.723306,0.00000234,0x00,0xFE
"SPI","result",24.72330936,0.00000234,0x00,0xF7
"SPI","result",24.7233127,0.00000236,0x00,0xFF
"SPI","result",24.72331606,0.00000236,0x00,0xF9
"SPI","result",24.72331942,0.00000236,0x00,0xFF
"SPI","result",24.72332278,0.00000236,0x00,0xF9
"SPI","disable",24.7233258,0.00000002,,
"SPI","enable",24.72332754,0.00000002,,
"SPI","result",24.72332804,0.00000236,0x7F,0xFF
"SPI","result",24.72333122,0.00000236,0x00,0xFF
"SPI","disable",24.72333394,0.00000002,,
"SPI","enable",24.72333456,0.00000002,,
"SPI","result",24.723335,0.00000236,0xF2,0xFF
"SPI","result",24.7233383,0.00000236,0x00,0xFE
"SPI","result",24.72334166,0.00000236,0x00,0xF8
"SPI","result",24.72334502,0.00000236,0x00,0xFF
"SPI","result",24.72334838,0.00000236,0x00,0xF8
"SPI","result",24.72335174,0.00000236,0x00,0xFF
"SPI","result",24.7233551,0.00000236,0x00,0xF7
"SPI","result",24.72335846,0.00000236,0x00,0xFE
"SPI","result",24.72336182,0.00000236,0x00,0xFA
"SPI","result",24.72336518,0.00000236,0x00,0xFF
"SPI","result",24.72336854,0.00000236,0x00,0xF8
"SPI","result",24.7233719,0.00000236,0x00,0xFF
"SPI","result",24.72337526,0.00000236,0x00,0xF8
"SPI","disable",24.72337828,0.00000002,,
"SPI","enable",24.72338002,0.00000002,,
"SPI","result",24.72338052,0.00000236,0x7F,0xFF
"SPI","result",24.7233837,0.00000236,0x00,0xFF
"SPI","disable",24.7233864,0.00000002,,
"SPI","enable",24.72338702,0.00000002,,
"SPI","result",24.72338748,0.00000236,0xF2,0xFF
"SPI","result",24.72339078,0.00000236,0x00,0xFE
"SPI","result",24.72339414,0.00000236,0x00,0xFA
"SPI","result",24.7233975,0.00000236,0x00,0xFF
"SPI","result",24.72340086,0.00000236,0x00,0xF9
"SPI","result",24.72340422,0.00000236,0x00,0xFF
"SPI","result",24.72340758,0.00000236,0x00,0xFA
"SPI","result",24.72341094,0.00000236,0x00,0xFE
"SPI","result",24.7234143,0.00000236,0x00,0xF9
"SPI","result",24.72341766,0.00000236,0x00,0xFF
"SPI","result",24.72342102,0.00000236,0x00,0xF8
"SPI","result",24.72342438,0.00000236,0x00,0xFF
"SPI","result",24.72342774,0.00000236,0x00,0xF9
"SPI","disable",24.72343076,0.00000002,,
"SPI","enable",24.7234325,0.00000002,,
"SPI","result",24.723433,0.00000236,0x7F,0xFF
"SPI","result",24.72343618,0.00000236,0x00,0xFF
"SPI","disable",24.72343888,0.00000002,,
"SPI","enable",24.7234395,0.00000002,,
"SPI","result",24.72343994,0.00000236,0xF2,0xFF
"SPI","result",24.72344326,0.00000236,0x00,0xFE
"SPI","result",24.72344662,0.00000236,0x00,0xF9
"SPI","result",24.72344998,0.00000236,0x00,0xFF
"SPI","result",24.72345334,0.00000236,0x00,0xF5
"SPI","result",24.7234567,0.00000236,0x00,0xFF
"SPI","result",24.72346006,0.00000236,0x00,0xFC
"SPI","result",24.72346342,0.00000236,0x00,0xFE
"SPI","result",24.72346678,0.00000236,0x00,0xF7
"SPI","result",24.72347014,0.00000236,0x00,0xFF
"SPI","result",24.7234735,0.00000236,0x00,0xF4
"SPI","result",24.72347686,0.00000234,0x00,0xFF
"SPI","result",24.7234802,0.00000236,0x00,0xFB
"SPI","disable",24.72348324,0.00000002,,
"SPI","enable",24.72348496,0.00000002,,
"SPI","result",24.72348548,0.00000234,0x7F,0xFF
"SPI","result",24.72348864,0.00000236,0x00,0xFF
"SPI","disable",24.72349136,0.00000002,,
"SPI","enable",24.72349198,0.00000002,,
"SPI","result",24.72349242,0.00000236,0xF2,0xFF
"SPI","result",24.72349574,0.00000234,0x00,0xFE
"SPI","result",24.7234991,0.00000234,0x00,0xF8
"SPI","result",24.72350244,0.00000236,0x00,0xFF
"SPI","result",24.7235058,0.00000236,0x00,0xF2
"SPI","result",24.72350916,0.00000236,0x00,0xFF
"SPI","result",24.72351252,0.00000236,0x00,0xFC
"SPI","result",24.72351588,0.00000236,0x00,0xFE
"SPI","result",24.72351924,0.00000236,0x00,0xF8
"SPI","result",24.7235226,0.00000236,0x00,0xFF
"SPI","result",24.72352596,0.00000236,0x00,0xF3
"SPI","result",24.72352932,0.00000236,0x00,0xFF
"SPI","result",24.72353268,0.00000236,0x00,0xFE
"SPI","disable",24.7235357,0.00000002,,
"SPI","enable",24.72353744,0.00000002,,
"SPI","result",24.72353794,0.00000236,0x7F,0xFF
"SPI","result",24.72354112,0.00000236,0x00,0xFF
"SPI","disable",24.72354382,0.00000002,,
"SPI","enable",24.72354444,0.00000002,,
"SPI","result",24.7235449,0.00000236,0xF2,0xFF
"SPI","result",24.7235482,0.00000236,0x00,0xFE
"SPI","result",24.72355156,0.00000236,0x00,0xF6
"SPI","result",24.72355492,0.00000236,0x00,0xFF
"SPI","result",24.72355828,0.00000236,0x00,0xF5
"SPI","result",24.72356164,0.00000236,0x00,0x00
"SPI","result",24.723565,0.00000236,0x00,0x00
"SPI","result",24.72356836,0.00000236,0x00,0xFE
"SPI","result",24.72357172,0.00000236,0x00,0xF4
"SPI","result",24.72357508,0.00000236,0x00,0xFF
"SPI","result",24.72357844,0.00000236,0x00,0xF5
"SPI","result",24.7235818,0.00000236,0x00,0xFF
"SPI","result",24.72358516,0.00000236,0x00,0xFF
"SPI","disable",24.72358818,0.00000002,,
"SPI","enable",24.72358992,0.00000002,,
"SPI","result",24.72359042,0.00000236,0x7F,0xFF
"SPI","result",24.7235936,0.00000236,0x00,0xFF
"SPI","disable",24.7235963,0.00000002,,
"SPI","enable",24.72359692,0.00000002,,
"SPI","result",24.72359738,0.00000236,0xF2,0xFF
"SPI","result",24.72360068,0.00000236,0x00,0xFE
"SPI","result",24.72360404,0.00000236,0x00,0xF5
"SPI","result",24.7236074,0.00000236,0x00,0xFF
"SPI","result",24.72361076,0.00000236,0x00,0xF4
"SPI","result",24.72361412,0.00000236,0x00,0x00
"SPI","result",24.72361748,0.00000236,0x00,0x02
"SPI","result",24.72362084,0.00000236,0x00,0xFE
"SPI","result",24.7236242,0.00000236,0x00,0xF6
"SPI","result",24.72362756,0.00000236,0x00,0xFF
"SPI","result",24.72363092,0.00000236,0x00,0xF4
"SPI","result",24.72363428,0.00000236,0x00,0x00
"SPI","result",24.72363764,0.00000236,0x00,0x02
"SPI","disable",24.72364066,0.00000002,,
"SPI","enable",24.7236424,0.00000002,,
"SPI","result",24.7236429,0.00000236,0x7F,0xFF
"SPI","result",24.72364606,0.00000236,0x00,0xFF
"SPI","disable",24.72364878,0.00000002,,
"SPI","enable",24.7236494,0.00000002,,
"SPI","result",24.72364984,0.00000236,0xF2,0xFF
"SPI","result",24.72365316,0.00000236,0x00,0xFE
"SPI","result",24.72365652,0.00000236,0x00,0xF6
"SPI","result",24.72365988,0.00000236,0x00,0xFF
"SPI","result",24.72366324,0.00000236,0x00,0xF4
"SPI","result",24.7236666,0.00000234,0x00,0x00
"SPI","result",24.72366994,0.00000236,0x00,0x01
"SPI","result",24.7236733,0.00000236,0x00,0xFE
"SPI","result",24.72367666,0.00000236,0x00,0xF7
"SPI","result",24.72368002,0.00000236,0x00,0xFF
"SPI","result",24.72368338,0.00000236,0x00,0xF4
"SPI","result",24.72368674,0.00000236,0x00,0xFF
"SPI","result",24.7236901,0.00000236,0x00,0xFF
"SPI","disable",24.72369312,0.00000002,,
"SPI","enable",24.72369486,0.00000002,,
"SPI","result",24.72369536,0.00000236,0x7F,0xFF
"SPI","result",24.72369854,0.00000236,0x00,0xFF
"SPI","disable",24.72370126,0.00000002,,
"SPI","enable",24.72370186,0.00000002,,
"SPI","result",24.72370232,0.00000236,0xF2,0xFF
"SPI","result",24.72370562,0.00000236,0x00,0xFE
"SPI","result",24.72370898,0.00000236,0x00,0xF7
"SPI","result",24.72371234,0.00000236,0x00,0xFF
"SPI","result",24.7237157,0.00000236,0x00,0xF3
"SPI","result",24.72371906,0.00000236,0x00,0x00
"SPI","result",24.72372242,0.00000236,0x00,0x01
"SPI","result",24.72372578,0.00000236,0x00,0xFE
"SPI","result",24.72372914,0.00000236,0x00,0xF4
"SPI","result",24.7237325,0.00000236,0x00,0xFF
"SPI","result",24.72373586,0.00000236,0x00,0xF3
"SPI","result",24.72373922,0.00000236,0x00,0xFF
"SPI","result",24.72374258,0.00000236,0x00,0xFF
"SPI","disable",24.7237456,0.00000002,,
"SPI","enable",24.72374734,0.00000002,,
"SPI","result",24.72374784,0.00000236,0x7F,0xFF
"SPI","result",24.72375102,0.00000236,0x00,0xFF
"SPI","disable",24.72375372,0.00000002,,
"SPI","enable",24.72375434,0.00000002,,
"SPI","result",24.7237548,0.00000236,0xF2,0xFF
"SPI","result",24.7237581,0.00000236,0x00,0xFE
"SPI","result",24.72376146,0.00000236,0x00,0xF6
"SPI","result",24.72376482,0.00000236,0x00,0xFF
"SPI","result",24.72376818,0.00000236,0x00,0xF1
"SPI","result",24.72377154,0.00000236,0x00,0xFF
"SPI","result",24.7237749,0.00000236,0x00,0xFD
"SPI","result",24.72377826,0.00000236,0x00,0xFE
"SPI","result",24.72378162,0.00000236,0x00,0xF7
"SPI","result",24.72378498,0.00000236,0x00,0xFF
"SPI","result",24.72378834,0.00000236,0x00,0xF1
"SPI","result",24.7237917,0.00000236,0x00,0xFF
"SPI","result",24.72379506,0.00000236,0x00,0xFE
"SPI","disable",24.72379808,0.00000002,,
"SPI","enable",24.72379982,0.00000002,,
"SPI","result",24.72380032,0.00000236,0x7F,0xFF
"SPI","result",24.7238035,0.00000236,0x00,0xFF
"SPI","disable",24.7238062,0.00000002,,
"SPI","enable",24.72380682,0.00000002,,
"SPI","result",24.72380726,0.00000236,0xF2,0xFF
"SPI","result",24.72381058,0.00000236,0x00,0xFE
"SPI","result",24.72381394,0.00000236,0x00,0xF8
"SPI","result",24.7238173,0.00000236,0x00,0xFF
"SPI","result",24.72382066,0.00000236,0x00,0xF0
"SPI","result",24.72382402,0.00000236,0x00,0xFF
"SPI","result",24.72382738,0.00000236,0x00,0xFD
"SPI","result",24.72383074,0.00000236,0x00,0xFE
"SPI","result",24.7238341,0.00000234,0x00,0xF8
"SPI","result",24.72383744,0.00000236,0x00,0xFF
"SPI","result",24.7238408,0.00000236,0x00,0xF0
"SPI","result",24.72384416,0.00000236,0x00,0xFF
"SPI","result",24.72384752,0.00000236,0x00,0xFC
"SPI","disable",24.72385054,0.00000002,,
"SPI","enable",24.72385228,0.00000002,,
"SPI","result",24.72385278,0.00000236,0x7F,0xFF
"SPI","result",24.72385596,0.00000236,0x00,0xFF
"SPI","disable",24.72385868,0.00000002,,
"SPI","enable",24.7238593,0.00000002,,
"SPI","result",24.72385974,0.00000236,0xF2,0xFF
"SPI","result",24.72386304,0.00000236,0x00,0xFE
"SPI","result",24.7238664,0.00000236,0x00,0xF8
"SPI","result",24.72386976,0.00000236,0x00,0xFF
"SPI","result",24.72387312,0.00000236,0x00,0xF3
"SPI","result",24.72387648,0.00000236,0x00,0xFF
"SPI","result",24.72387984,0.00000236,0x00,0xFC
"SPI","result",24.7238832,0.00000236,0x00,0xFE
"SPI","result",24.72388656,0.00000236,0x00,0xF8
"SPI","result",24.72388992,0.00000236,0x00,0xFF
"SPI","result",24.72389328,0.00000236,0x00,0xF3
"SPI","result",24.72389664,0.00000236,0x00,0xFF
"SPI","result",24.7239,0.00000236,0x00,0xFB
"SPI","disable",24.72390302,0.00000002,,
"SPI","enable",24.72390476,0.00000002,,
"SPI","result",24.72390526,0.00000236,0x7F,0xFF
"SPI","result",24.72390844,0.00000236,0x00,0xFF
"SPI","disable",24.72391114,0.00000002,,
"SPI","enable",24.72391176,0.00000002,,
"SPI","result",24.72391222,0.00000236,0xF2,0xFF
"SPI","result",24.72391552,0.00000236,0x00,0xFE
"SPI","result",24.72391888,0.00000236,0x00,0xFA
"SPI","result",24.72392224,0.00000236,0x00,0xFF
"SPI","result",24.7239256,0.00000236,0x00,0xF2
"SPI","result",24.72392896,0.00000236,0x00,0xFF
"SPI","result",24.72393232,0.00000236,0x00,0xFA
"SPI","result",24.72393568,0.00000236,0x00,0xFE
"SPI","result",24.72393904,0.00000236,0x00,0xF9
"SPI","result",24.7239424,0.00000236,0x00,0xFF
"SPI","result",24.72394576,0.00000236,0x00,0xF0
"SPI","result",24.72394912,0.00000236,0x00,0xFF
"SPI","result",24.72395248,0.00000236,0x00,0xFA
"SPI","disable",24.7239555,0.00000002,,
"SPI","enable",24.72395724,0.00000002,,
"SPI","result",24.72395774,0.00000236,0x7F,0xFF
"SPI","result",24.72396092,0.00000236,0x00,0xFF
"SPI","disable",24.72396362,0.00000002,,
"SPI","enable",24.72396424,0.00000002,,
"SPI","result",24.72396468,0.00000236,0xF2,0xFF
"SPI","result",24.723968,0.00000236,0x00,0xFE
"SPI","result",24.72397136,0.00000236,0x00,0xF9
"SPI","result",24.72397472,0.00000236,0x00,0xFF
"SPI","result",24.72397808,0.00000236,0x00,0xEF
"SPI","result",24.72398144,0.00000236,0x00,0xFF
"SPI","result",24.7239848,0.00000236,0x00,0xFE
"SPI","result",24.72398816,0.00000236,0x00,0xFE
"SPI","result",24.72399152,0.00000236,0x00,0xF8
"SPI","result",24.72399488,0.00000236,0x00,0xFF
"SPI","result",24.72399824,0.00000236,0x00,0xF3
"SPI","result",24.7240016,0.00000234,0x00,0xFF
"SPI","result",24.72400496,0.00000234,0x00,0xFD
"SPI","disable",24.72400798,0.00000002,,
"SPI","enable",24.7240097,0.00000002,,
"SPI","result",24.72401022,0.00000234,0x7F,0xFF
"SPI","result",24.72401338,0.00000236,0x00,0xFF
"SPI","disable",24.7240161,0.00000002,,
"SPI","enable",24.72401672,0.00000002,,
"SPI","result",24.72401716,0.00000236,0xF2,0xFF
"SPI","result",24.72402048,0.00000236,0x00,0xFE
"SPI","result",24.72402384,0.00000234,0x00,0xF8
"SPI","result",24.72402718,0.00000236,0x00,0xFF
"SPI","result",24.72403054,0.00000236,0x00,0xF3
"SPI","result",24.7240339,0.00000236,0x00,0xFF
"SPI","result",24.72403726,0.00000236,0x00,0xFD
"SPI","result",24.72404062,0.00000236,0x00,0xFE
"SPI","result",24.72404398,0.00000236,0x00,0xF5
"SPI","result",24.72404734,0.00000236,0x00,0xFF
"SPI","result",24.7240507,0.00000236,0x00,0xF3
"SPI","result",24.72405406,0.00000236,0x00,0xFF
"SPI","result",24.72405742,0.00000236,0x00,0xF8
"SPI","disable",24.72406044,0.00000002,,
"SPI","enable",24.72406218,0.00000002,,
"SPI","result",24.72406268,0.00000236,0x7F,0xFF
"SPI","result",24.72406586,0.00000236,0x00,0xFF
"SPI","disable",24.72406856,0.00000002,,
"SPI","enable",24.72406918,0.00000002,,
"SPI","result",24.72406964,0.00000236,0xF2,0xFF
"SPI","result",24.72407294,0.00000236,0x00,0xFE
"SPI","result",24.7240763,0.00000236,0x00,0xF4
"SPI","result",24.72407966,0.00000236,0x00,0xFF
"SPI","result",24.72408302,0.00000236,0x00,0xF3
"SPI","result",24.72408638,0.00000236,0x00,0xFF
"SPI","result",24.72408974,0.00000236,0x00,0xF5
"SPI","result",24.7240931,0.00000236,0x00,0xFE
"SPI","result",24.72409646,0.00000236,0x00,0xF6
"SPI","result",24.72409982,0.00000236,0x00,0xFF
"SPI","result",24.72410318,0.00000236,0x00,0xF3
"SPI","result",24.72410654,0.00000236,0x00,0xFF
"SPI","result",24.7241099,0.00000236,0x00,0xF6
"SPI","disable",24.72411292,0.00000002,,
"SPI","enable",24.72411466,0.00000002,,
"SPI","result",24.72411516,0.00000236,0x7F,0xFF
"SPI","result",24.72411834,0.00000236,0x00,0xFF
"SPI","disable",24.72412104,0.00000002,,
"SPI","enable",24.72412166,0.00000002,,
"SPI","result",24.72412212,0.00000236,0xF2,0xFF
"SPI","result",24.72412542,0.00000236,0x00,0xFE
"SPI","result",24.72412878,0.00000236,0x00,0xF9
"SPI","result",24.72413214,0.00000236,0x00,0xFF
"SPI","result",24.7241355,0.00000236,0x00,0xF3
"SPI","result",24.72413886,0.00000236,0x00,0xFF
"SPI","result",24.72414222,0.00000236,0x00,0xF7
"SPI","result",24.72414558,0.00000236,0x00,0xFE
"SPI","result",24.72414894,0.00000236,0x00,0xF9
"SPI","result",24.7241523,0.00000236,0x00,0xFF
"SPI","result",24.72415566,0.00000236,0x00,0xF2
"SPI","result",24.72415902,0.00000236,0x00,0xFF
"SPI","result",24.72416238,0.00000236,0x00,0xF9
"SPI","disable",24.7241654,0.00000002,,
"SPI","enable",24.72416714,0.00000002,,
"SPI","result",24.72416764,0.00000236,0x7F,0xFF
"SPI","result",24.7241708,0.00000236,0x00,0xFF
"SPI","disable",24.72417352,0.00000002,,
"SPI","enable",24.72417414,0.00000002,,
"SPI","result",24.72417458,0.00000236,0xF2,0xFF
"SPI","result",24.7241779,0.00000236,0x00,0xFE
"SPI","result",24.72418126,0.00000236,0x00,0xF9
"SPI","result",24.72418462,0.00000236,0x00,0xFF
"SPI","result",24.72418798,0.00000236,0x00,0xF3
"SPI","result",24.72419134,0.00000234,0x00,0xFF
"SPI","result",24.72419468,0.00000236,0x00,0xFA
"SPI","result",24.72419804,0.00000236,0x00,0xFE
"SPI","result",24.7242014,0.00000236,0x00,0xF6
"SPI","result",24.72420476,0.00000236,0x00,0xFF
"SPI","result",24.72420812,0.00000236,0x00,0xEF
"SPI","result",24.72421148,0.00000236,0x00,0xFF
"SPI","result",24.72421484,0.00000236,0x00,0xFB
"SPI","disable",24.72421786,0.00000002,,
"SPI","enable",24.7242196,0.00000002,,
"SPI","result",24.7242201,0.00000236,0x7F,0xFF
"SPI","result",24.72422328,0.00000236,0x00,0xFF
"SPI","disable",24.724226,0.00000002,,
"SPI","enable",24.7242266,0.00000002,,
"SPI","result",24.72422706,0.00000236,0xF2,0xFF
"SPI","result",24.72423036,0.00000236,0x00,0xFE
"SPI","result",24.72423372,0.00000236,0x00,0xF7
"SPI","result",24.72423708,0.00000236,0x00,0xFF
"SPI","result",24.72424044,0.00000236,0x00,0xEC
"SPI","result",24.7242438,0.00000236,0x00,0xFF
"SPI","result",24.72424716,0.00000236,0x00,0xFA
"SPI","result",24.72425052,0.00000236,0x00,0xFE
"SPI","result",24.72425388,0.00000236,0x00,0xF8
"SPI","result",24.72425724,0.00000236,0x00,0xFF
"SPI","result",24.7242606,0.00000236,0x00,0xEB
"SPI","result",24.72426396,0.00000236,0x00,0xFF
"SPI","result",24.72426732,0.00000236,0x00,0xF9
"SPI","disable",24.72427034,0.00000002,,
"SPI","enable",24.72427208,0.00000002,,
"SPI","result",24.72427258,0.00000236,0x7F,0xFF
"SPI","result",24.72427576,0.00000236,0x00,0xFF
"SPI","disable",24.72427846,0.00000002,,
"SPI","enable",24.72427908,0.00000002,,
"SPI","result",24.72427954,0.00000236,0xF2,0xFF
"SPI","result",24.72428284,0.00000236,0x00,0xFE
"SPI","result",24.7242862,0.00000236,0x00,0xF7
"SPI","result",24.72428956,0.00000236,0x00,0xFF
"SPI","result",24.72429292,0.00000236,0x00,0xED
"SPI","result",24.72429628,0.00000236,0x00,0xFF
"SPI","result",24.72429964,0.00000236,0x00,0xF9
"SPI","result",24.724303,0.00000236,0x00,0xFE
"SPI","result",24.72430636,0.00000236,0x00,0xF6
"SPI","result",24.72430972,0.00000236,0x00,0xFF
"SPI","result",24.72431308,0.00000236,0x00,0xEC
"SPI","result",24.72431644,0.00000236,0x00,0xFF
"SPI","result",24.7243198,0.00000236,0x00,0xF8
"SPI","disable",24.72432282,0.00000002,,
"SPI","enable",24.72432456,0.00000002,,
"SPI","result",24.72432506,0.00000236,0x7F,0xFF
"SPI","result",24.72432824,0.00000236,0x00,0xFF
"SPI","disable",24.72433094,0.00000002,,
"SPI","enable",24.72433156,0.00000002,,
"SPI","result",24.724332,0.00000236,0xF2,0xFF
"SPI","result",24.72433532,0.00000236,0x00,0xFE
"SPI","result",24.72433868,0.00000236,0x00,0xF9
"SPI","result",24.72434204,0.00000236,0x00,0xFF
"SPI","result",24.7243454,0.00000236,0x00,0xEC
"SPI","result",24.72434876,0.00000236,0x00,0xFF
"SPI","result",24.72435212,0.00000236,0x00,0xF9
"SPI","result",24.72435548,0.00000236,0x00,0xFE
"SPI","result",24.72435884,0.00000236,0x00,0xF8
"SPI","result",24.7243622,0.00000234,0x00,0xFF
"SPI","result",24.72436554,0.00000236,0x00,0xEE
"SPI","result",24.7243689,0.00000236,0x00,0xFF
"SPI","result",24.72437226,0.00000236,0x00,0xFA
"SPI","disable",24.72437528,0.00000002,,
"SPI","enable",24.72437702,0.00000002,,
"SPI","result",24.72437752,0.00000236,0x7F,0xFF
"SPI","result",24.7243807,0.00000236,0x00,0xFF
"SPI","disable",24.72438342,0.00000002,,
"SPI","enable",24.72438404,0.00000002,,
"SPI","result",24.72438448,0.00000236,0xF2,0xFF
"SPI","result",24.72438778,0.00000236,0x00,0xFE
"SPI","result",24.72439114,0.00000236,0x00,0xF7
"SPI","result",24.7243945,0.00000236,0x00,0xFF
"SPI","result",24.72439786,0.00000236,0x00,0xEE
"SPI","result",24.72440122,0.00000236,0x00,0xFF
"SPI","result",24.72440458,0.00000236,0x00,0xFB
"SPI","result",24.72440794,0.00000236,0x00,0xFE
"SPI","result",24.7244113,0.00000236,0x00,0xF4
"SPI","result",24.72441466,0.00000236,0x00,0xFF
"SPI","result",24.72441802,0.00000236,0x00,0xEE
"SPI","result",24.72442138,0.00000236,0x00,0xFF
"SPI","result",24.72442474,0.00000236,0x00,0xFD
"SPI","disable",24.72442776,0.00000002,,
"SPI","enable",24.7244295,0.00000002,,
"SPI","result",24.72443,0.00000236,0x7F,0xFF
"SPI","result",24.72443318,0.00000236,0x00,0xFF
"SPI","disable",24.72443588,0.00000002,,
"SPI","enable",24.7244365,0.00000002,,
"SPI","result",24.72443696,0.00000236,0xF2,0xFF
"SPI","result",24.72444026,0.00000236,0x00,0xFE
"SPI","result",24.72444362,0.00000236,0x00,0xF0
"SPI","result",24.72444698,0.00000236,0x00,0xFF
"SPI","result",24.72445034,0.00000236,0x00,0xEF
"SPI","result",24.7244537,0.00000236,0x00,0xFF
"SPI","result",24.72445706,0.00000236,0x00,0xFE
"SPI","result",24.72446042,0.00000236,0x00,0xFE
"SPI","result",24.72446378,0.00000236,0x00,0xF0
"SPI","result",24.72446714,0.00000236,0x00,0xFF
"SPI","result",24.7244705,0.00000236,0x00,0xF0
"SPI","result",24.72447386,0.00000236,0x00,0xFF
"SPI","result",24.72447722,0.00000236,0x00,0xFE
"SPI","disable",24.72448024,0.00000002,,
"SPI","enable",24.72448198,0.00000002,,
"SPI","result",24.72448248,0.00000236,0x7F,0xFF
"SPI","result",24.72448566,0.00000236,0x00,0xFF
"SPI","disable",24.72448836,0.00000002,,
"SPI","enable",24.72448898,0.00000002,,
"SPI","result",24.72448942,0.00000236,0xF2,0xFF
"SPI","result",24.72449274,0.00000236,0x00,0xFE
"SPI","result",24.7244961,0.00000236,0x00,0xF0
"SPI","result",24.72449946,0.00000236,0x00,0xFF
"SPI","result",24.72450282,0.00000236,0x00,0xF0
"SPI","result",24.72450618,0.00000236,0x00,0x00
"SPI","result",24.72450954,0.00000236,0x00,0x02
"SPI","result",24.7245129,0.00000236,0x00,0xFE
"SPI","result",24.72451626,0.00000236,0x00,0xF1
"SPI","result",24.72451962,0.00000236,0x00,0xFF
"SPI","result",24.72452298,0.00000236,0x00,0xF0
"SPI","result",24.72452634,0.00000236,0x00,0x00
"SPI","result",24.7245297,0.00000234,0x00,0x02
"SPI","disable",24.72453272,0.00000002,,
"SPI","enable",24.72453444,0.00000002,,
"SPI","result",24.72453496,0.00000236,0x7F,0xFF
"SPI","result",24.72453812,0.00000236,0x00,0xFF
"SPI","disable",24.72454084,0.00000002,,
"SPI","enable",24.72454146,0.00000002,,
"SPI","result",24.7245419,0.00000236,0xF2,0xFF
"SPI","result",24.72454522,0.00000236,0x00,0xFE
"SPI","result",24.72454858,0.00000234,0x00,0xF2
"SPI","result",24.72455192,0.00000236,0x00,0xFF
"SPI","result",24.72455528,0.00000236,0x00,0xEF
"SPI","result",24.72455864,0.00000236,0x00,0x00
"SPI","result",24.724562,0.00000236,0x00,0x03
"SPI","result",24.72456536,0.00000236,0x00,0xFE
"SPI","result",24.72456872,0.00000236,0x00,0xF3
"SPI","result",24.72457208,0.00000236,0x00,0xFF
"SPI","result",24.72457544,0.00000236,0x00,0xEE
"SPI","result",24.7245788,0.00000236,0x00,0x00
"SPI","result",24.72458216,0.00000236,0x00,0x05
"SPI","disable",24.72458518,0.00000002,,
"SPI","enable",24.72458692,0.00000002,,
"SPI","result",24.72458742,0.00000236,0x7F,0xFF
"SPI","result",24.7245906,0.00000236,0x00,0xFF
"SPI","disable",24.7245933,0.00000002,,
"SPI","enable",24.72459392,0.00000002,,
"SPI","result",24.72459438,0.00000236,0xF2,0xFF
"SPI","result",24.72459768,0.00000236,0x00,0xFE
"SPI","result",24.72460104,0.00000236,0x00,0xF4
"SPI","result",24.7246044,0.00000236,0x00,0xFF
"SPI","result",24.72460776,0.00000236,0x00,0xEE
"SPI","result",24.72461112,0.00000236,0x00,0x00
"SPI","result",24.72461448,0.00000236,0x00,0x08
"SPI","result",24.72461784,0.00000236,0x00,0xFE
"SPI","result",24.7246212,0.00000236,0x00,0xF4
"SPI","result",24.72462456,0.00000236,0x00,0xFF
"SPI","result",24.72462792,0.00000236,0x00,0xEE
"SPI","result",24.72463128,0.00000236,0x00,0x00
"SPI","result",24.72463464,0.00000236,0x00,0x08
"SPI","disable",24.72463766,0.00000002,,
"SPI","enable",24.7246394,0.00000002,,
"SPI","result",24.7246399,0.00000236,0x7F,0xFF
"SPI","result",24.72464308,0.00000236,0x00,0xFF
"SPI","disable",24.72464578,0.00000002,,
"SPI","enable",24.7246464,0.00000002,,
"SPI","result",24.72464686,0.00000236,0xF2,0xFF
"SPI","result",24.72465016,0.00000236,0x00,0xFE
"SPI","result",24.72465352,0.00000236,0x00,0xF4
"SPI","result",24.72465688,0.00000236,0x00,0xFF
"SPI","result",24.72466024,0.00000236,0x00,0xEF
"SPI","result",24.7246636,0.00000236,0x00,0x00
"SPI","result",24.72466696,0.00000236,0x00,0x09
"SPI","result",24.72467032,0.00000236,0x00,0xFE
"SPI","result",24.72467368,0.00000236,0x00,0xF6
"SPI","result",24.72467704,0.00000236,0x00,0xFF
"SPI","result",24.7246804,0.00000236,0x00,0xEE
"SPI","result",24.72468376,0.00000236,0x00,0x00
"SPI","result",24.72468712,0.00000236,0x00,0x0C
"SPI","disable",24.72469014,0.00000002,,
"SPI","enable",24.72469188,0.00000002,,
"SPI","result",24.72469238,0.00000236,0x7F,0xFF
"SPI","result",24.72469554,0.00000236,0x00,0xFF
"SPI","disable",24.72469826,0.00000002,,
"SPI","enable",24.72469888,0.00000002,,
"SPI","result",24.72469932,0.00000236,0xF2,0xFF
"SPI","result",24.72470264,0.00000236,0x00,0xFE
"SPI","result",24.724706,0.00000236,0x00,0xF7
"SPI","result",24.72470936,0.00000236,0x00,0xFF
"SPI","result",24.72471272,0.00000236,0x00,0xF0
"SPI","result",24.72471608,0.00000236,0x00,0x00
"SPI","result",24.72471944,0.00000234,0x00,0x0F
"SPI","result",24.72472278,0.00000236,0x00,0xFE
"SPI","result",24.72472614,0.00000236,0x00,0xF6
"SPI","result",24.7247295,0.00000236,0x00,0xFF
"SPI","result",24.72473286,0.00000236,0x00,0xF3
"SPI","result",24.72473622,0.00000236,0x00,0x00
"SPI","result",24.72473958,0.00000236,0x00,0x0D
"SPI","disable",24.7247426,0.00000002,,
"SPI","enable",24.72474434,0.00000002,,
"SPI","result",24.72474484,0.00000236,0x7F,0xFF
"SPI","result",24.72474802,0.00000236,0x00,0xFF
"SPI","disable",24.72475074,0.00000002,,
"SPI","enable",24.72475134,0.00000002,,
"SPI","result",24.7247518,0.00000236,0xF2,0xFF
"SPI","result",24.7247551,0.00000236,0x00,0xFE
"SPI","result",24.72475846,0.00000236,0x00,0xF4
"SPI","result",24.72476182,0.00000236,0x00,0xFF
"SPI","result",24.72476518,0.00000236,0x00,0xF5
"SPI","result",24.72476854,0.00000236,0x00,0x00
"SPI","result",24.7247719,0.00000236,0x00,0x0B
"SPI","result",24.72477526,0.00000236,0x00,0xFE
"SPI","result",24.72477862,0.00000236,0x00,0xF3
"SPI","result",24.72478198,0.00000236,0x00,0xFF
"SPI","result",24.72478534,0.00000236,0x00,0xF6
"SPI","result",24.7247887,0.00000236,0x00,0x00
"SPI","result",24.72479206,0.00000236,0x00,0x0A
"SPI","disable",24.72479508,0.00000002,,
"SPI","enable",24.72479682,0.00000002,,
"SPI","result",24.72479732,0.00000236,0x7F,0xFF
"SPI","result",24.7248005,0.00000236,0x00,0xFF
"SPI","disable",24.7248032,0.00000002,,
"SPI","enable",24.72480382,0.00000002,,
"SPI","result",24.72480428,0.00000236,0xF2,0xFF
"SPI","result",24.72480758,0.00000236,0x00,0xFE
"SPI","result",24.72481094,0.00000236,0x00,0xF1
"SPI","result",24.7248143,0.00000236,0x00,0xFF
"SPI","result",24.72481766,0.00000236,0x00,0xF6
"SPI","result",24.72482102,0.00000236,0x00,0x00
"SPI","result",24.72482438,0.00000236,0x00,0x0B
"SPI","result",24.72482774,0.00000236,0x00,0xFE
"SPI","result",24.7248311,0.00000236,0x00,0xF1
"SPI","result",24.72483446,0.00000236,0x00,0xFF
"SPI","result",24.72483782,0.00000236,0x00,0xF8
"SPI","result",24.72484118,0.00000236,0x00,0x00
"SPI","result",24.72484454,0.00000236,0x00,0x0A
"SPI","disable",24.72484756,0.00000002,,
"SPI","enable",24.7248493,0.00000002,,
"SPI","result",24.7248498,0.00000236,0x7F,0xFF
"SPI","result",24.72485298,0.00000236,0x00,0xFF
"SPI","disable",24.72485568,0.00000002,,
"SPI","enable",24.7248563,0.00000002,,
"SPI","result",24.72485674,0.00000236,0xF2,0xFF
"SPI","result",24.72486006,0.00000236,0x00,0xFE
"SPI","result",24.72486342,0.00000236,0x00,0xF3
"SPI","result",24.72486678,0.00000236,0x00,0xFF
"SPI","result",24.72487014,0.00000236,0x00,0xF7
"SPI","result",24.7248735,0.00000236,0x00,0x00
"SPI","result",24.72487686,0.00000236,0x00,0x09
"SPI","result",24.72488022,0.00000236,0x00,0xFE
"SPI","result",24.72488358,0.00000236,0x00,0xF2
"SPI","result",24.72488694,0.00000234,0x00,0xFF
"SPI","result",24.72489028,0.00000236,0x00,0xF6
"SPI","result",24.72489364,0.00000236,0x00,0x00
"SPI","result",24.724897,0.00000236,0x00,0x0B
"SPI","disable",24.72490002,0.00000002,,
"SPI","enable",24.72490176,0.00000002,,
"SPI","result",24.72490226,0.00000236,0x7F,0xFF
"SPI","result",24.72490544,0.00000236,0x00,0xFF
"SPI","disable",24.72490816,0.00000002,,
"SPI","enable",24.72490878,0.00000002,,
"SPI","result",24.72490922,0.00000236,0xF2,0xFF
"SPI","result",24.72491252,0.00000236,0x00,0xFE
"SPI","result",24.72491588,0.00000236,0x00,0xF1
"SPI","result",24.72491924,0.00000236,0x00,0xFF
"SPI","result",24.7249226,0.00000236,0x00,0xF5
"SPI","result",24.72492596,0.00000236,0x00,0x00
"SPI","result",24.72492932,0.00000236,0x00,0x0D
"SPI","result",24.72493268,0.00000236,0x00,0xFE
"SPI","result",24.72493604,0.00000236,0x00,0xEE
"SPI","result",24.7249394,0.00000236,0x00,0xFF
"SPI","result",24.72494276,0.00000236,0x00,0xF4
"SPI","result",24.72494612,0.00000236,0x00,0x00
"SPI","result",24.72494948,0.00000236,0x00,0x0B
"SPI","disable",24.7249525,0.00000002,,
"SPI","enable",24.72495424,0.00000002,,
"SPI","result",24.72495474,0.00000236,0x7F,0xFF
"SPI","result",24.72495792,0.00000236,0x00,0xFF
"SPI","disable",24.72496062,0.00000002,,
"SPI","enable",24.72496124,0.00000002,,
"SPI","result",24.7249617,0.00000236,0xF2,0xFF
"SPI","result",24.724965,0.00000236,0x00,0xFE
"SPI","result",24.72496836,0.00000236,0x00,0xF0
"SPI","result",24.72497172,0.00000236,0x00,0xFF
"SPI","result",24.72497508,0.00000236,0x00,0xF0
"SPI","result",24.72497844,0.00000236,0x00,0x00
"SPI","result",24.7249818,0.00000236,0x00,0x0A
"SPI","result",24.72498516,0.00000236,0x00,0xFE
"SPI","result",24.72498852,0.00000236,0x00,0xEF
"SPI","result",24.72499188,0.00000236,0x00,0xFF
"SPI","result",24.72499524,0.00000236,0x00,0xED
"SPI","result",24.7249986,0.00000236,0x00,0x00
"SPI","result",24.72500196,0.00000236,0x00,0x08
"SPI","disable",24.72500498,0.00000002,,
"SPI","enable",24.72500672,0.00000002,,
"SPI","result",24.72500722,0.00000236,0x7F,0xFF
"SPI","result",24.7250104,0.00000236,0x00,0xFF
"SPI","disable",24.7250131,0.00000002,,
"SPI","enable",24.72501372,0.00000002,,
"SPI","result",24.72501418,0.00000234,0xF2,0xFF
"SPI","result",24.72501748,0.00000236,0x00,0xFE
"SPI","result",24.72502084,0.00000236,0x00,0xF1
"SPI","result",24.7250242,0.00000236,0x00,0xFF
"SPI","result",24.72502756,0.00000236,0x00,0xEB
"SPI","result",24.72503092,0.00000236,0x00,0x00
"SPI","result",24.72503428,0.00000236,0x00,0x09
"SPI","result",24.72503764,0.00000236,0x00,0xFE
"SPI","result",24.725041,0.00000236,0x00,0xF2
"SPI","result",24.72504436,0.00000236,0x00,0xFF
"SPI","result",24.72504772,0.00000236,0x00,0xEA
"SPI","result",24.72505108,0.00000236,0x00,0x00
"SPI","result",24.72505444,0.00000234,0x00,0x0A
"SPI","disable",24.72505746,0.00000002,,
"SPI","enable",24.72505918,0.00000002,,
"SPI","result",24.7250597,0.00000236,0x7F,0xFF
"SPI","result",24.72506286,0.00000236,0x00,0xFF
"SPI","disable",24.72506558,0.00000002,,
"SPI","enable",24.7250662,0.00000002,,
"SPI","result",24.72506664,0.00000236,0xF2,0xFF
"SPI","result",24.72506996,0.00000236,0x00,0xFE
"SPI","result",24.72507332,0.00000236,0x00,0xF1
"SPI","result",24.72507668,0.00000234,0x00,0xFF
"SPI","result",24.72508002,0.00000236,0x00,0xEA
"SPI","result",24.72508338,0.00000236,0x00,0x00
"SPI","result",24.72508674,0.00000236,0x00,0x0C
"SPI","result",24.7250901,0.00000236,0x00,0xFE
"SPI","result",24.72509346,0.00000236,0x00,0xF3
"SPI","result",24.72509682,0.00000236,0x00,0xFF
"SPI","result",24.72510018,0.00000236,0x00,0xEC
"SPI","result",24.72510354,0.00000236,0x00,0x00
"SPI","result",24.7251069,0.00000236,0x00,0x0B
"SPI","disable",24.72510992,0.00000002,,
"SPI","enable",24.72511166,0.00000002,,
"SPI","result",24.72511216,0.00000236,0x7F,0xFF
"SPI","result",24.72511534,0.00000236,0x00,0xFF
"SPI","disable",24.72511804,0.00000002,,
"SPI","enable",24.72511866,0.00000002,,
"SPI","result",24.72511912,0.00000236,0xF2,0xFF
"SPI","result",24.72512242,0.00000236,0x00,0xFE
"SPI","result",24.72512578,0.00000236,0x00,0xF3
"SPI","result",24.72512914,0.00000236,0x00,0xFF
"SPI","result",24.7251325,0.00000236,0x00,0xEC
"SPI","result",24.72513586,0.00000236,0x00,0x00
"SPI","result",24.72513922,0.00000236,0x00,0x0B
"SPI","result",24.72514258,0.00000236,0x00,0xFE
"SPI","result",24.72514594,0.00000236,0x00,0xF4
"SPI","result",24.7251493,0.00000236,0x00,0xFF
"SPI","result",24.72515266,0.00000236,0x00,0xEE
"SPI","result",24.72515602,0.00000236,0x00,0x00
"SPI","result",24.72515938,0.00000236,0x00,0x09
"SPI","disable",24.7251624,0.00000002,,
"SPI","enable",24.72516414,0.00000002,,
"SPI","result",24.72516464,0.00000236,0x7F,0xFF
"SPI","result",24.72516782,0.00000236,0x00,0xFF
"SPI","disable",24.72517052,0.00000002,,
"SPI","enable",24.72517114,0.00000002,,
"SPI","result",24.7251716,0.00000236,0xF2,0xFF
"SPI","result",24.7251749,0.00000236,0x00,0xFE
"SPI","result",24.72517826,0.00000236,0x00,0xF5
"SPI","result",24.72518162,0.00000236,0x00,0xFF
"SPI","result",24.72518498,0.00000236,0x00,0xED
"SPI","result",24.72518834,0.00000236,0x00,0x00
"SPI","result",24.7251917,0.00000236,0x00,0x09
"SPI","result",24.72519506,0.00000236,0x00,0xFE
"SPI","result",24.72519842,0.00000236,0x00,0xF9
"SPI","result",24.72520178,0.00000236,0x00,0xFF
"SPI","result",24.72520514,0.00000236,0x00,0xEA
"SPI","result",24.7252085,0.00000236,0x00,0x00
"SPI","result",24.72521186,0.00000236,0x00,0x07
"SPI","disable",24.72521488,0.00000002,,
"SPI","enable",24.72521662,0.00000002,,
"SPI","result",24.72521712,0.00000236,0x7F,0xFF
"SPI","result",24.7252203,0.00000234,0x00,0xFF
"SPI","disable",24.725223,0.00000002,,
"SPI","enable",24.72522362,0.00000002,,
"SPI","result",24.72522406,0.00000236,0xF2,0xFF
"SPI","result",24.72522738,0.00000236,0x00,0xFE
"SPI","result",24.72523074,0.00000236,0x00,0xFC
"SPI","result",24.7252341,0.00000236,0x00,0xFF
"SPI","result",24.72523746,0.00000236,0x00,0xE9
"SPI","result",24.72524082,0.00000236,0x00,0x00
"SPI","result",24.72524418,0.00000234,0x00,0x08
"SPI","result",24.72524752,0.00000236,0x00,0xFE
"SPI","result",24.72525088,0.00000236,0x00,0xFB
"SPI","result",24.72525424,0.00000236,0x00,0xFF
"SPI","result",24.7252576,0.00000236,0x00,0xE8
"SPI","result",24.72526096,0.00000236,0x00,0x00
"SPI","result",24.72526432,0.00000236,0x00,0x07
"SPI","disable",24.72526734,0.00000002,,
"SPI","enable",24.72526908,0.00000002,,
"SPI","result",24.72526958,0.00000236,0x7F,0xFF
"SPI","result",24.72527276,0.00000236,0x00,0xFF
"SPI","disable",24.72527548,0.00000002,,
"SPI","enable",24.7252761,0.00000002,,
"SPI","result",24.72527654,0.00000236,0xF2,0xFF
"SPI","result",24.72527984,0.00000236,0x00,0xFE
"SPI","result",24.7252832,0.00000236,0x00,0xF9
"SPI","result",24.72528656,0.00000236,0x00,0xFF
"SPI","result",24.72528992,0.00000236,0x00,0xE8
"SPI","result",24.72529328,0.00000236,0x00,0x00
"SPI","result",24.72529664,0.00000236,0x00,0x09
"SPI","result",24.7253,0.00000236,0x00,0xFE
"SPI","result",24.72530336,0.00000236,0x00,0xF8
"SPI","result",24.72530672,0.00000236,0x00,0xFF
"SPI","result",24.72531008,0.00000236,0x00,0xE7
"SPI","result",24.72531344,0.00000236,0x00,0x00
"SPI","result",24.7253168,0.00000236,0x00,0x09
"SPI","disable",24.72531982,0.00000002,,
"SPI","enable",24.72532156,0.00000002,,
"SPI","result",24.72532206,0.00000236,0x7F,0xFF
"SPI","result",24.72532524,0.00000236,0x00,0xFF
"SPI","disable",24.72532794,0.00000002,,
"SPI","enable",24.72532856,0.00000002,,
"SPI","result",24.72532902,0.00000236,0xF2,0xFF
"SPI","result",24.72533232,0.00000236,0x00,0xFE
"SPI","result",24.72533568,0.00000236,0x00,0xFA
"SPI","result",24.72533904,0.00000236,0x00,0xFF
"SPI","result",24.7253424,0.00000236,0x00,0xE7
"SPI","result",24.72534576,0.00000236,0x00,0x00
"SPI","result",24.72534912,0.00000236,0x00,0x09
"SPI","result",24.72535248,0.00000236,0x00,0xFE
"SPI","result",24.72535584,0.00000236,0x00,0xFB
"SPI","result",24.7253592,0.00000236,0x00,0xFF
"SPI","result",24.72536256,0.00000236,0x00,0xE6
"SPI","result",24.72536592,0.00000236,0x00,0x00
"SPI","result",24.72536928,0.00000236,0x00,0x09
"SPI","disable",24.7253723,0.00000002,,
"SPI","enable",24.72537404,0.00000002,,
"SPI","result",24.72537454,0.00000236,0x7F,0xFF
"SPI","result",24.72537772,0.00000236,0x00,0xFF
"SPI","disable",24.72538042,0.00000002,,
"SPI","enable",24.72538104,0.00000002,,
"SPI","result",24.72538148,0.00000236,0xF2,0xFF
"SPI","result",24.7253848,0.00000236,0x00,0xFE
"SPI","result",24.72538816,0.00000236,0x00,0xFB
"SPI","result",24.72539152,0.00000236,0x00,0xFF
"SPI","result",24.72539488,0.00000236,0x00,0xE5
"SPI","result",24.72539824,0.00000236,0x00,0x00
"SPI","result",24.7254016,0.00000236,0x00,0x07
"SPI","result",24.72540496,0.00000236,0x00,0xFE
"SPI","result",24.72540832,0.00000236,0x00,0xFA
"SPI","result",24.72541168,0.00000234,0x00,0xFF
"SPI","result",24.72541504,0.00000234,0x00,0xE4
"SPI","result",24.72541838,0.00000236,0x00,0x00
"SPI","result",24.72542174,0.00000236,0x00,0x08
"SPI","disable",24.72542476,0.00000002,,
"SPI","enable",24.7254265,0.00000002,,
"SPI","result",24.725427,0.00000236,0x7F,0xFF
"SPI","result",24.72543018,0.00000236,0x00,0xFF
"SPI","disable",24.7254329,0.00000002,,
"SPI","enable",24.72543352,0.00000002,,
"SPI","result",24.72543396,0.00000236,0xF2,0xFF
"SPI","result",24.72543726,0.00000236,0x00,0xFE
"SPI","result",24.72544062,0.00000236,0x00,0xFA
"SPI","result",24.72544398,0.00000236,0x00,0xFF
"SPI","result",24.72544734,0.00000236,0x00,0xE4
"SPI","result",24.7254507,0.00000236,0x00,0x00
"SPI","result",24.72545406,0.00000236,0x00,0x07
"SPI","result",24.72545742,0.00000236,0x00,0xFE
"SPI","result",24.72546078,0.00000236,0x00,0xFB
"SPI","result",24.72546414,0.00000236,0x00,0xFF
"SPI","result",24.7254675,0.00000236,0x00,0xE0
"SPI","result",24.72547086,0.00000236,0x00,0x00
"SPI","result",24.72547422,0.00000236,0x00,0x07
"SPI","disable",24.72547724,0.00000002,,
"SPI","enable",24.72547898,0.00000002,,
"SPI","result",24.72547948,0.00000236,0x7F,0xFF
"SPI","result",24.72548266,0.00000236,0x00,0xFF
"SPI","disable",24.72548536,0.00000002,,
"SPI","enable",24.72548598,0.00000002,,
"SPI","result",24.72548644,0.00000236,0xF2,0xFF
"SPI","result",24.72548974,0.00000236,0x00,0xFE
"SPI","result",24.7254931,0.00000236,0x00,0xFA
"SPI","result",24.72549646,0.00000236,0x00,0xFF
"SPI","result",24.72549982,0.00000236,0x00,0xE0
"SPI","result",24.72550318,0.00000236,0x00,0x00
"SPI","result",24.72550654,0.00000236,0x00,0x09
"SPI","result",24.7255099,0.00000236,0x00,0xFE
"SPI","result",24.72551326,0.00000236,0x00,0xFB
"SPI","result",24.72551662,0.00000236,0x00,0xFF
"SPI","result",24.72551998,0.00000236,0x00,0xE0
"SPI","result",24.72552334,0.00000236,0x00,0x00
"SPI","result",24.7255267,0.00000236,0x00,0x08
"SPI","disable",24.72552972,0.00000002,,
"SPI","enable",24.72553146,0.00000002,,
"SPI","result",24.72553196,0.00000236,0x7F,0xFF
"SPI","result",24.72553514,0.00000236,0x00,0xFF
"SPI","disable",24.72553784,0.00000002,,
"SPI","enable",24.72553846,0.00000002,,
"SPI","result",24.72553892,0.00000234,0xF2,0xFF
"SPI","result",24.72554222,0.00000236,0x00,0xFE
"SPI","result",24.72554558,0.00000236,0x00,0xFB
"SPI","result",24.72554894,0.00000236,0x00,0xFF
"SPI","result",24.7255523,0.00000236,0x00,0xE1
"SPI","result",24.72555566,0.00000236,0x00,0x00
"SPI","result",24.72555902,0.00000236,0x00,0x08
"SPI","result",24.72556238,0.00000236,0x00,0xFE
"SPI","result",24.72556574,0.00000236,0x00,0xFA
"SPI","result",24.7255691,0.00000236,0x00,0xFF
"SPI","result",24.72557246,0.00000236,0x00,0xE2
"SPI","result",24.72557582,0.00000236,0x00,0x00
"SPI","result",24.72557918,0.00000236,0x00,0x09
"SPI","disable",24.7255822,0.00000002,,
"SPI","enable",24.72558392,0.00000002,,
"SPI","result",24.72558444,0.00000236,0x7F,0xFF
"SPI","result",24.7255876,0.00000236,0x00,0xFF
"SPI","disable",24.72559032,0.00000002,,
"SPI","enable",24.72559094,0.00000002,,
"SPI","result",24.72559138,0.00000236,0xF2,0xFF
"SPI","result",24.7255947,0.00000236,0x00,0xFE
"SPI","result",24.72559806,0.00000236,0x00,0xFB
"SPI","result",24.72560142,0.00000234,0x00,0xFF
"SPI","result",24.72560478,0.00000234,0x00,0xE3
"SPI","result",24.72560812,0.00000236,0x00,0x00
"SPI","result",24.72561148,0.00000236,0x00,0x06
"SPI","result",24.72561484,0.00000236,0x00,0xFE
"SPI","result",24.7256182,0.00000236,0x00,0xFE
"SPI","result",24.72562156,0.00000236,0x00,0xFF
"SPI","result",24.72562492,0.00000236,0x00,0xE2
"SPI","result",24.72562828,0.00000236,0x00,0x00
"SPI","result",24.72563164,0.00000236,0x00,0x07
"SPI","disable",24.72563466,0.00000002,,
"SPI","enable",24.7256364,0.00000002,,
"SPI","result",24.7256369,0.00000236,0x7F,0xFF
"SPI","result",24.72564008,0.00000236,0x00,0xFF
"SPI","disable",24.7256428,0.00000002,,
"SPI","enable",24.7256434,0.00000002,,
"SPI","result",24.72564386,0.00000236,0xF2,0xFF
"SPI","result",24.72564716,0.00000236,0x00,0xFE
"SPI","result",24.72565052,0.00000236,0x00,0xFE
"SPI","result",24.72565388,0.00000236,0x00,0xFF
"SPI","result",24.72565724,0.00000236,0x00,0xE4
"SPI","result",24.7256606,0.00000236,0x00,0x00
"SPI","result",24.72566396,0.00000236,0x00,0x09
"SPI","result",24.72566732,0.00000236,0x00,0xFE
"SPI","result",24.72567068,0.00000236,0x00,0xFC
"SPI","result",24.72567404,0.00000236,0x00,0xFF
"SPI","result",24.7256774,0.00000236,0x00,0xE7
"SPI","result",24.72568076,0.00000236,0x00,0x00
"SPI","result",24.72568412,0.00000236,0x00,0x0A
"SPI","disable",24.72568714,0.00000002,,
"SPI","enable",24.72568888,0.00000002,,
"SPI","result",24.72568938,0.00000236,0x7F,0xFF
"SPI","result",24.72569256,0.00000236,0x00,0xFF
"SPI","disable",24.72569526,0.00000002,,
"SPI","enable",24.72569588,0.00000002,,
"SPI","result",24.72569634,0.00000236,0xF2,0xFF
"SPI","result",24.72569964,0.00000236,0x00,0xFE
"SPI","result",24.725703,0.00000236,0x00,0xFA
"SPI","result",24.72570636,0.00000236,0x00,0xFF
"SPI","result",24.72570972,0.00000236,0x00,0xE9
"SPI","result",24.72571308,0.00000236,0x00,0x00
"SPI","result",24.72571644,0.00000236,0x00,0x0C
"SPI","result",24.7257198,0.00000236,0x00,0xFE
"SPI","result",24.72572316,0.00000236,0x00,0xF7
"SPI","result",24.72572652,0.00000236,0x00,0xFF
"SPI","result",24.72572988,0.00000236,0x00,0xE7
"SPI","result",24.72573324,0.00000236,0x00,0x00
"SPI","result",24.7257366,0.00000236,0x00,0x0D
"SPI","disable",24.72573962,0.00000002,,
"SPI","enable",24.72574136,0.00000002,,
"SPI","result",24.72574186,0.00000236,0x7F,0xFF
"SPI","result",24.72574504,0.00000234,0x00,0xFF
"SPI","disable",24.72574774,0.00000002,,
"SPI","enable",24.72574836,0.00000002,,
"SPI","result",24.7257488,0.00000236,0xF2,0xFF
"SPI","result",24.72575212,0.00000236,0x00,0xFE
"SPI","result",24.72575548,0.00000236,0x00,0xF9
"SPI","result",24.72575884,0.00000236,0x00,0xFF
"SPI","result",24.7257622,0.00000236,0x00,0xE7
"SPI","result",24.72576556,0.00000236,0x00,0x00
"SPI","result",24.72576892,0.00000236,0x00,0x0D
"SPI","result",24.72577228,0.00000234,0x00,0xFE
"SPI","result",24.72577562,0.00000236,0x00,0xF8
"SPI","result",24.72577898,0.00000236,0x00,0xFF
"SPI","result",24.72578234,0.00000236,0x00,0xE6
"SPI","result",24.7257857,0.00000236,0x00,0x00
"SPI","result",24.72578906,0.00000236,0x00,0x0E
"SPI","disable",24.72579208,0.00000002,,
"SPI","enable",24.72579382,0.00000002,,
"SPI","result",24.72579432,0.00000236,0x7F,0xFF
"SPI","result",24.7257975,0.00000236,0x00,0xFF
"SPI","disable",24.72580022,0.00000002,,
"SPI","enable",24.72580084,0.00000002,,
"SPI","result",24.72580128,0.00000236,0xF2,0xFF
"SPI","result",24.72580458,0.00000236,0x00,0xFE
"SPI","result",24.72580794,0.00000236,0x00,0xF7
"SPI","result",24.7258113,0.00000236,0x00,0xFF
"SPI","result",24.72581466,0.00000236,0x00,0xE7
"SPI","result",24.72581802,0.00000236,0x00,0x00
"SPI","result",24.72582138,0.00000236,0x00,0x0D
"SPI","result",24.72582474,0.00000236,0x00,0xFE
"SPI","result",24.7258281,0.00000236,0x00,0xF7
"SPI","result",24.72583146,0.00000236,0x00,0xFF
"SPI","result",24.72583482,0.00000236,0x00,0xE7
"SPI","result",24.72583818,0.00000236,0x00,0x00
"SPI","result",24.72584154,0.00000236,0x00,0x09
"SPI","disable",24.72584456,0.00000002,,
"SPI","enable",24.7258463,0.00000002,,
"SPI","result",24.7258468,0.00000236,0x7F,0xFF
"SPI","result",24.72584998,0.00000236,0x00,0xFF
"SPI","disable",24.72585268,0.00000002,,
"SPI","enable",24.7258533,0.00000002,,
"SPI","result",24.72585376,0.00000236,0xF2,0xFF
"SPI","result",24.72585706,0.00000236,0x00,0xFE
"SPI","result",24.72586042,0.00000236,0x00,0xF5
"SPI","result",24.72586378,0.00000236,0x00,0xFF
"SPI","result",24.72586714,0.00000236,0x00,0xE8
"SPI","result",24.7258705,0.00000236,0x00,0x00
"SPI","result",24.72587386,0.00000236,0x00,0x09
"SPI","result",24.72587722,0.00000236,0x00,0xFE
"SPI","result",24.72588058,0.00000236,0x00,0xF4
"SPI","result",24.72588394,0.00000236,0x00,0xFF
"SPI","result",24.7258873,0.00000236,0x00,0xE9
"SPI","result",24.72589066,0.00000236,0x00,0x00
"SPI","result",24.72589402,0.00000236,0x00,0x0C
"SPI","disable",24.72589704,0.00000002,,
"SPI","enable",24.72589878,0.00000002,,
"SPI","result",24.72589928,0.00000236,0x7F,0xFF
"SPI","result",24.72590246,0.00000236,0x00,0xFF
"SPI","disable",24.72590516,0.00000002,,
"SPI","enable",24.72590578,0.00000002,,
"SPI","result",24.72590622,0.00000236,0xF2,0xFF
"SPI","result",24.72590954,0.00000236,0x00,0xFE
"SPI","result",24.7259129,0.00000236,0x00,0xF4
"SPI","result",24.72591626,0.00000236,0x00,0xFF
"SPI","result",24.72591962,0.00000236,0x00,0xE7
"SPI","result",24.72592298,0.00000236,0x00,0x00
"SPI","result",24.72592634,0.00000236,0x00,0x0C
"SPI","result",24.7259297,0.00000236,0x00,0xFE
"SPI","result",24.72593306,0.00000236,0x00,0xF5
"SPI","result",24.72593642,0.00000236,0x00,0xFF
"SPI","result",24.72593978,0.00000234,0x00,0xE7
"SPI","result",24.72594312,0.00000236,0x00,0x00
"SPI","result",24.72594648,0.00000236,0x00,0x0C
"SPI","disable",24.7259495,0.00000002,,
"SPI","enable",24.72595124,0.00000002,,
"SPI","result",24.72595174,0.00000236,0x7F,0xFF
"SPI","result",24.72595492,0.00000236,0x00,0xFF
"SPI","disable",24.72595764,0.00000002,,
"SPI","enable",24.72595826,0.00000002,,
"SPI","result",24.7259587,0.00000236,0xF2,0xFF
"SPI","result",24.72596202,0.00000234,0x00,0xFE
"SPI","result",24.72596536,0.00000236,0x00,0xF5
"SPI","result",24.72596872,0.00000236,0x00,0xFF
"SPI","result",24.72597208,0.00000236,0x00,0xE7
"SPI","result",24.72597544,0.00000236,0x00,0x00
"SPI","result",24.7259788,0.00000236,0x00,0x0B
"SPI","result",24.72598216,0.00000236,0x00,0xFE
"SPI","result",24.72598552,0.00000236,0x00,0xF3
"SPI","result",24.72598888,0.00000236,0x00,0xFF
"SPI","result",24.72599224,0.00000236,0x00,0xE7
"SPI","result",24.7259956,0.00000236,0x00,0x00
"SPI","result",24.72599896,0.00000236,0x00,0x0B
"SPI","disable",24.72600198,0.00000002,,
"SPI","enable",24.72600372,0.00000002,,
"SPI","result",24.72600422,0.00000236,0x7F,0xFF
"SPI","result",24.7260074,0.00000236,0x00,0xFF
"SPI","disable",24.7260101,0.00000002,,
"SPI","enable",24.72601072,0.00000002,,
"SPI","result",24.72601118,0.00000236,0xF2,0xFF
"SPI","result",24.72601448,0.00000236,0x00,0xFE
"SPI","result",24.72601784,0.00000236,0x00,0xF2
"SPI","result",24.7260212,0.00000236,0x00,0xFF
"SPI","result",24.72602456,0.00000236,0x00,0xE8
"SPI","result",24.72602792,0.00000236,0x00,0x00
"SPI","result",24.72603128,0.00000236,0x00,0x08
"SPI","result",24.72603464,0.00000236,0x00,0xFE
"SPI","result",24.726038,0.00000236,0x00,0xF2
"SPI","result",24.72604136,0.00000236,0x00,0xFF
"SPI","result",24.72604472,0.00000236,0x00,0xEC
"SPI","result",24.72604808,0.00000236,0x00,0x00
"SPI","result",24.72605144,0.00000236,0x00,0x07
"SPI","disable",24.72605446,0.00000002,,
"SPI","enable",24.7260562,0.00000002,,
"SPI","result",24.7260567,0.00000236,0x7F,0xFF
"SPI","result",24.72605988,0.00000236,0x00,0xFF
"SPI","disable",24.72606258,0.00000002,,
"SPI","enable",24.7260632,0.00000002,,
"SPI","result",24.72606366,0.00000234,0xF2,0xFF
"SPI","result",24.72606696,0.00000236,0x00,0xFE
"SPI","result",24.72607032,0.00000236,0x00,0xF3
"SPI","result",24.72607368,0.00000236,0x00,0xFF
"SPI","result",24.72607704,0.00000236,0x00,0xEE
"SPI","result",24.7260804,0.00000236,0x00,0x00
"SPI","result",24.72608376,0.00000236,0x00,0x05
"SPI","result",24.72608712,0.00000236,0x00,0xFE
"SPI","result",24.72609048,0.00000236,0x00,0xF2
"SPI","result",24.72609384,0.00000236,0x00,0xFF
"SPI","result",24.7260972,0.00000236,0x00,0xEF
"SPI","result",24.72610056,0.00000236,0x00,0x00
"SPI","result",24.72610392,0.00000236,0x00,0x02
"SPI","disable",24.72610694,0.00000002,,
"SPI","enable",24.72610866,0.00000002,,
"SPI","result",24.72610918,0.00000236,0x7F,0xFF
"SPI","result",24.72611234,0.00000236,0x00,0xFF
"SPI","disable",24.72611506,0.00000002,,
"SPI","enable",24.72611568,0.00000002,,
"SPI","result",24.72611612,0.00000236,0xF2,0xFF
"SPI","result",24.72611944,0.00000236,0x00,0xFE
"SPI","result",24.7261228,0.00000236,0x00,0xF3
"SPI","result",24.72612616,0.00000236,0x00,0xFF
"SPI","result",24.72612952,0.00000234,0x00,0xF0
"SPI","result",24.72613286,0.00000236,0x00,0x00
"SPI","result",24.72613622,0.00000236,0x00,0x03
"SPI","result",24.72613958,0.00000236,0x00,0xFE
"SPI","result",24.72614294,0.00000236,0x00,0xF4
"SPI","result",24.7261463,0.00000236,0x00,0xFF
"SPI","result",24.72614966,0.00000236,0x00,0xF3
"SPI","result",24.72615302,0.00000236,0x00,0x00
"SPI","result",24.72615638,0.00000236,0x00,0x03
"SPI","disable",24.7261594,0.00000002,,
"SPI","enable",24.72616114,0.00000002,,
"SPI","result",24.72616164,0.00000236,0x7F,0xFF
"SPI","result",24.72616482,0.00000236,0x00,0xFF
"SPI","disable",24.72616754,0.00000002,,
"SPI","enable",24.72616814,0.00000002,,
"SPI","result",24.7261686,0.00000236,0xF2,0xFF
"SPI","result",24.7261719,0.00000236,0x00,0xFE
"SPI","result",24.72617526,0.00000236,0x00,0xF6
"SPI","result",24.72617862,0.00000236,0x00,0xFF
"SPI","result",24.72618198,0.00000236,0x00,0xF3
"SPI","result",24.72618534,0.00000236,0x00,0x00
"SPI","result",24.7261887,0.00000236,0x00,0x06
"SPI","result",24.72619206,0.00000236,0x00,0xFE
"SPI","result",24.72619542,0.00000236,0x00,0xF7
"SPI","result",24.72619878,0.00000236,0x00,0xFF
"SPI","result",24.72620214,0.00000236,0x00,0xF3
"SPI","result",24.7262055,0.00000236,0x00,0x00
"SPI","result",24.72620886,0.00000236,0x00,0x08
"SPI","disable",24.72621188,0.00000002,,
"SPI","enable",24.72621362,0.00000002,,
"SPI","result",24.72621412,0.00000236,0x7F,0xFF
"SPI","result",24.7262173,0.00000236,0x00,0xFF
"SPI","disable",24.72622,0.00000002,,
"SPI","enable",24.72622062,0.00000002,,
"SPI","result",24.72622108,0.00000236,0xF2,0xFF
"SPI","result",24.72622438,0.00000236,0x00,0xFE
"SPI","result",24.72622774,0.00000236,0x00,0xF5
"SPI","result",24.7262311,0.00000236,0x00,0xFF
"SPI","result",24.72623446,0.00000236,0x00,0xF3
"SPI","result",24.72623782,0.00000236,0x00,0x00
"SPI","result",24.72624118,0.00000236,0x00,0x09
"SPI","result",24.72624454,0.00000236,0x00,0xFE
"SPI","result",24.7262479,0.00000236,0x00,0xF5
"SPI","result",24.72625126,0.00000236,0x00,0xFF
"SPI","result",24.72625462,0.00000236,0x00,0xF5
"SPI","result",24.72625798,0.00000236,0x00,0x00
"SPI","result",24.72626134,0.00000236,0x00,0x0A
"SPI","disable",24.72626436,0.00000002,,
"SPI","enable",24.7262661,0.00000002,,
"SPI","result",24.7262666,0.00000236,0x7F,0xFF
"SPI","result",24.72626978,0.00000234,0x00,0xFF
"SPI","disable",24.72627248,0.00000002,,
"SPI","enable",24.7262731,0.00000002,,
"SPI","result",24.72627354,0.00000236,0xF2,0xFF
"SPI","result",24.72627686,0.00000236,0x00,0xFE
"SPI","result",24.72628022,0.00000236,0x00,0xF6
"SPI","result",24.72628358,0.00000236,0x00,0xFF
"SPI","result",24.72628694,0.00000236,0x00,0xF5
"SPI","result",24.7262903,0.00000236,0x00,0x00
"SPI","result",24.72629366,0.00000236,0x00,0x0B
"SPI","result",24.72629702,0.00000234,0x00,0xFE
"SPI","result",24.72630036,0.00000236,0x00,0xF9
"SPI","result",24.72630372,0.00000236,0x00,0xFF
"SPI","result",24.72630708,0.00000236,0x00,0xF4
"SPI","result",24.72631044,0.00000236,0x00,0x00
"SPI","result",24.7263138,0.00000236,0x00,0x0A
"SPI","disable",24.72631682,0.00000002,,
"SPI","enable",24.72631856,0.00000002,,
"SPI","result",24.72631906,0.00000236,0x7F,0xFF
"SPI","result",24.72632224,0.00000236,0x00,0xFF
"SPI","disable",24.72632496,0.00000002,,
"SPI","enable",24.72632558,0.00000002,,
"SPI","result",24.72632602,0.00000236,0xF2,0xFF
"SPI","result",24.72632932,0.00000236,0x00,0xFE
"SPI","result",24.72633268,0.00000236,0x00,0xFC
"SPI","result",24.72633604,0.00000236,0x00,0xFF
"SPI","result",24.7263394,0.00000236,0x00,0xF4
"SPI","result",24.72634276,0.00000236,0x00,0x00
"SPI","result",24.72634612,0.00000236,0x00,0x08
"SPI","result",24.72634948,0.00000236,0x00,0xFF
"SPI","result",24.72635284,0.00000236,0x00,0x00
"SPI","result",24.7263562,0.00000236,0x00,0xFF
"SPI","result",24.72635956,0.00000236,0x00,0xF3
"SPI","result",24.72636292,0.00000236,0x00,0x00
"SPI","result",24.72636628,0.00000236,0x00,0x07
"SPI","disable",24.7263693,0.00000002,,
"SPI","enable",24.72637104,0.00000002,,
"SPI","result",24.72637154,0.00000236,0x7F,0xFF
"SPI","result",24.72637472,0.00000236,0x00,0xFF
"SPI","disable",24.72637742,0.00000002,,
"SPI","enable",24.72637804,0.00000002,,
"SPI","result",24.7263785,0.00000236,0xF2,0xFF
"SPI","result",24.7263818,0.00000236,0x00,0xFF
"SPI","result",24.72638516,0.00000236,0x00,0x02
"SPI","result",24.72638852,0.00000236,0x00,0xFF
"SPI","result",24.72639188,0.00000236,0x00,0xF1
"SPI","result",24.72639524,0.00000236,0x00,0x00
"SPI","result",24.7263986,0.00000236,0x00,0x09
"SPI","result",24.72640196,0.00000236,0x00,0xFF
"SPI","result",24.72640532,0.00000236,0x00,0x03
"SPI","result",24.72640868,0.00000236,0x00,0xFF
"SPI","result",24.72641204,0.00000236,0x00,0xF3
"SPI","result",24.7264154,0.00000236,0x00,0x00
"SPI","result",24.72641876,0.00000236,0x00,0x09
"SPI","disable",24.72642178,0.00000002,,
"SPI","enable",24.72642352,0.00000002,,
"SPI","result",24.72642402,0.00000236,0x7F,0xFF
"SPI","result",24.7264272,0.00000236,0x00,0xFF
"SPI","disable",24.7264299,0.00000002,,
"SPI","enable",24.72643052,0.00000002,,
"SPI","result",24.72643096,0.00000236,0xF2,0xFF
"SPI","result",24.72643428,0.00000236,0x00,0xFF
"SPI","result",24.72643764,0.00000236,0x00,0x01
"SPI","result",24.726441,0.00000236,0x00,0xFF
"SPI","result",24.72644436,0.00000236,0x00,0xF1
"SPI","result",24.72644772,0.00000236,0x00,0x00
"SPI","result",24.72645108,0.00000236,0x00,0x09
"SPI","result",24.72645444,0.00000236,0x00,0xFF
"SPI","result",24.7264578,0.00000236,0x00,0x01
"SPI","result",24.72646116,0.00000236,0x00,0xFF
"SPI","result",24.72646452,0.00000234,0x00,0xF2
"SPI","result",24.72646788,0.00000234,0x00,0x00
"SPI","result",24.72647122,0.00000236,0x00,0x08
"SPI","disable",24.72647424,0.00000002,,
"SPI","enable",24.72647598,0.00000002,,
"SPI","result",24.7264765,0.00000234,0x7F,0xFF
"SPI","result",24.72647966,0.00000236,0x00,0xFF
"SPI","disable",24.72648238,0.00000002,,
"SPI","enable",24.726483,0.00000002,,
"SPI","result",24.72648344,0.00000236,0xF2,0xFF
"SPI","result",24.72648676,0.00000234,0x00,0xFF
"SPI","result",24.7264901,0.00000236,0x00,0x01
"SPI","result",24.72649346,0.00000236,0x00,0xFF
"SPI","result",24.72649682,0.00000236,0x00,0xF3
"SPI","result",24.72650018,0.00000236,0x00,0x00
"SPI","result",24.72650354,0.00000236,0x00,0x06
"SPI","result",24.7265069,0.00000236,0x00,0xFF
"SPI","result",24.72651026,0.00000236,0x00,0x02
"SPI","result",24.72651362,0.00000236,0x00,0xFF
"SPI","result",24.72651698,0.00000236,0x00,0xF5
"SPI","result",24.72652034,0.00000236,0x00,0x00
"SPI","result",24.7265237,0.00000236,0x00,0x06
"SPI","disable",24.72652672,0.00000002,,
"SPI","enable",24.72652846,0.00000002,,
"SPI","result",24.72652896,0.00000236,0x7F,0xFF
"SPI","result",24.72653214,0.00000236,0x00,0xFF
"SPI","disable",24.72653484,0.00000002,,
"SPI","enable",24.72653546,0.00000002,,
"SPI","result",24.72653592,0.00000236,0xF2,0xFF
"SPI","result",24.72653922,0.00000236,0x00,0xFF
"SPI","result",24.72654258,0.00000236,0x00,0x02
"SPI","result",24.72654594,0.00000236,0x00,0xFF
"SPI","result",24.7265493,0.00000236,0x00,0xF7
"SPI","result",24.72655266,0.00000236,0x00,0x00
"SPI","result",24.72655602,0.00000236,0x00,0x03
"SPI","result",24.72655938,0.00000236,0x00,0xFF
"SPI","result",24.72656274,0.00000236,0x00,0x01
"SPI","result",24.7265661,0.00000236,0x00,0xFF
"SPI","result",24.72656946,0.00000236,0x00,0xF6
"SPI","result",24.72657282,0.00000236,0x00,0x00
"SPI","result",24.72657618,0.00000236,0x00,0x01
"SPI","disable",24.7265792,0.00000002,,
"SPI","enable",24.72658094,0.00000002,,
"SPI","result",24.72658144,0.00000236,0x7F,0xFF
"SPI","result",24.72658462,0.00000236,0x00,0xFF
"SPI","disable",24.72658732,0.00000002,,
"SPI","enable",24.72658794,0.00000002,,
"SPI","result",24.7265884,0.00000236,0xF2,0xFF
"SPI","result",24.7265917,0.00000236,0x00,0xFF
"SPI","result",24.72659506,0.00000236,0x00,0x01
"SPI","result",24.72659842,0.00000236,0x00,0xFF
"SPI","result",24.72660178,0.00000236,0x00,0xF8
"SPI","result",24.72660514,0.00000236,0x00,0x00
"SPI","result",24.7266085,0.00000236,0x00,0x03
"SPI","result",24.72661186,0.00000236,0x00,0xFF
"SPI","result",24.72661522,0.00000236,0x00,0x00
"SPI","result",24.72661858,0.00000236,0x00,0xFF
"SPI","result",24.72662194,0.00000236,0x00,0xF9
"SPI","result",24.7266253,0.00000236,0x00,0x00
"SPI","result",24.72662866,0.00000236,0x00,0x04
"SPI","disable",24.72663168,0.00000002,,
"SPI","enable",24.72663342,0.00000002,,
"SPI","result",24.72663392,0.00000236,0x7F,0xFF
"SPI","result",24.72663708,0.00000236,0x00,0xFF
"SPI","disable",24.7266398,0.00000002,,
"SPI","enable",24.72664042,0.00000002,,
"SPI","result",24.72664086,0.00000236,0xF2,0xFF
"SPI","result",24.72664418,0.00000236,0x00,0xFF
"SPI","result",24.72664754,0.00000236,0x00,0x01
"SPI","result",24.7266509,0.00000236,0x00,0xFF
"SPI","result",24.72665426,0.00000234,0x00,0xF7
"SPI","result",24.7266576,0.00000236,0x00,0x00
"SPI","result",24.72666096,0.00000236,0x00,0x02
"SPI","result",24.72666432,0.00000236,0x00,0xFF
"SPI","result",24.72666768,0.00000236,0x00,0x01
"SPI","result",24.72667104,0.00000236,0x00,0xFF
"SPI","result",24.7266744,0.00000236,0x00,0xF6
"SPI","result",24.72667776,0.00000236,0x00,0x00
"SPI","result",24.72668112,0.00000236,0x00,0x02
"SPI","disable",24.72668414,0.00000002,,
"SPI","enable",24.72668588,0.00000002,,
"SPI","result",24.72668638,0.00000236,0x7F,0xFF
"SPI","result",24.72668956,0.00000236,0x00,0xFF
"SPI","disable",24.72669228,0.00000002,,
"SPI","enable",24.72669288,0.00000002,,
"SPI","result",24.72669334,0.00000236,0xF2,0xFF
"SPI","result",24.72669664,0.00000236,0x00,0xFF
"SPI","result",24.7267,0.00000236,0x00,0x01
"SPI","result",24.72670336,0.00000236,0x00,0xFF
"SPI","result",24.72670672,0.00000236,0x00,0xF4
"SPI","result",24.72671008,0.00000236,0x00,0x00
"SPI","result",24.72671344,0.00000236,0x00,0x01
"SPI","result",24.7267168,0.00000236,0x00,0xFE
"SPI","result",24.72672016,0.00000236,0x00,0xFF
"SPI","result",24.72672352,0.00000236,0x00,0xFF
"SPI","result",24.72672688,0.00000236,0x00,0xF4
"SPI","result",24.72673024,0.00000236,0x00,0x00
"SPI","result",24.7267336,0.00000236,0x00,0x02
"SPI","disable",24.72673662,0.00000002,,
"SPI","enable",24.72673836,0.00000002,,
"SPI","result",24.72673886,0.00000236,0x7F,0xFF
"SPI","result",24.72674204,0.00000236,0x00,0xFF
"SPI","disable",24.72674474,0.00000002,,
"SPI","enable",24.72674536,0.00000002,,
"SPI","result",24.72674582,0.00000236,0xF2,0xFF
"SPI","result",24.72674912,0.00000236,0x00,0xFE
"SPI","result",24.72675248,0.00000236,0x00,0xFE
"SPI","result",24.72675584,0.00000236,0x00,0xFF
"SPI","result",24.7267592,0.00000236,0x00,0xF4
"SPI","result",24.72676256,0.00000236,0x00,0x00
"SPI","result",24.72676592,0.00000236,0x00,0x04
"SPI","result",24.72676928,0.00000236,0x00,0xFE
"SPI","result",24.72677264,0.00000236,0x00,0xFE
"SPI","result",24.726776,0.00000236,0x00,0xFF
"SPI","result",24.72677936,0.00000236,0x00,0xF2
"SPI","result",24.72678272,0.00000236,0x00,0x00
"SPI","result",24.72678608,0.00000236,0x00,0x04
"SPI","disable",24.7267891,0.00000002,,
"SPI","enable",24.72679084,0.00000002,,
"SPI","result",24.72679134,0.00000236,0x7F,0xFF
"SPI","result",24.72679452,0.00000236,0x00,0xFF
"SPI","disable",24.72679722,0.00000002,,
"SPI","enable",24.72679784,0.00000002,,
"SPI","result",24.72679828,0.00000236,0xF2,0xFF
"SPI","result",24.7268016,0.00000236,0x00,0xFE
"SPI","result",24.72680496,0.00000236,0x00,0xFE
"SPI","result",24.72680832,0.00000236,0x00,0xFF
"SPI","result",24.72681168,0.00000236,0x00,0xF3
"SPI","result",24.72681504,0.00000236,0x00,0x00
"SPI","result",24.7268184,0.00000236,0x00,0x06
"SPI","result",24.72682176,0.00000236,0x00,0xFE
"SPI","result",24.72682512,0.00000234,0x00,0xFE
"SPI","result",24.72682846,0.00000236,0x00,0xFF
"SPI","result",24.72683182,0.00000236,0x00,0xF3
"SPI","result",24.72683518,0.00000236,0x00,0x00
"SPI","result",24.72683854,0.00000236,0x00,0x07
"SPI","disable",24.72684156,0.00000002,,
"SPI","enable",24.7268433,0.00000002,,
"SPI","result",24.7268438,0.00000236,0x7F,0xFF
"SPI","result",24.72684698,0.00000236,0x00,0xFF
"SPI","disable",24.7268497,0.00000002,,
"SPI","enable",24.72685032,0.00000002,,
"SPI","result",24.72685076,0.00000236,0xF2,0xFF
"SPI","result",24.72685406,0.00000236,0x00,0xFE
"SPI","result",24.72685742,0.00000236,0x00,0xFE
"SPI","result",24.72686078,0.00000236,0x00,0xFF
"SPI","result",24.72686414,0.00000236,0x00,0xF4
"SPI","result",24.7268675,0.00000236,0x00,0x00
"SPI","result",24.72687086,0.00000236,0x00,0x06
"SPI","result",24.72687422,0.00000236,0x00,0xFE
"SPI","result",24.72687758,0.00000236,0x00,0xFD
"SPI","result",24.72688094,0.00000236,0x00,0xFF
"SPI","result",24.7268843,0.00000236,0x00,0xF6
"SPI","result",24.72688766,0.00000236,0x00,0x00
"SPI","result",24.72689102,0.00000236,0x00,0x06
"SPI","disable",24.72689404,0.00000002,,
"SPI","enable",24.72689578,0.00000002,,
"SPI","result",24.72689628,0.00000236,0x7F,0xFF
"SPI","result",24.72689946,0.00000236,0x00,0xFF
"SPI","disable",24.72690216,0.00000002,,
"SPI","enable",24.72690278,0.00000002,,
"SPI","result",24.72690324,0.00000236,0xF2,0xFF
"SPI","result",24.72690654,0.00000236,0x00,0xFE
"SPI","result",24.7269099,0.00000236,0x00,0xFC
"SPI","result",24.72691326,0.00000236,0x00,0xFF
"SPI","result",24.72691662,0.00000236,0x00,0xF6
"SPI","result",24.72691998,0.00000236,0x00,0x00
"SPI","result",24.72692334,0.00000236,0x00,0x06
"SPI","result",24.7269267,0.00000236,0x00,0xFE
"SPI","result",24.72693006,0.00000236,0x00,0xF9
"SPI","result",24.72693342,0.00000236,0x00,0xFF
"SPI","result",24.72693678,0.00000236,0x00,0xF6
"SPI","result",24.72694014,0.00000236,0x00,0x00
"SPI","result",24.7269435,0.00000236,0x00,0x07
"SPI","disable",24.72694652,0.00000002,,
"SPI","enable",24.72694826,0.00000002,,
"SPI","result",24.72694876,0.00000236,0x7F,0xFF
"SPI","result",24.72695194,0.00000236,0x00,0xFF
"SPI","disable",24.72695464,0.00000002,,
"SPI","enable",24.72695526,0.00000002,,
"SPI","result",24.7269557,0.00000236,0xF2,0xFF
"SPI","result",24.72695902,0.00000236,0x00,0xFE
"SPI","result",24.72696238,0.00000236,0x00,0xF9
"SPI","result",24.72696574,0.00000236,0x00,0xFF
"SPI","result",24.7269691,0.00000236,0x00,0xF6
"SPI","result",24.72697246,0.00000236,0x00,0x00
"SPI","result",24.72697582,0.00000236,0x00,0x09
"SPI","result",24.72697918,0.00000236,0x00,0xFE
"SPI","result",24.72698254,0.00000236,0x00,0xFB
"SPI","result",24.7269859,0.00000236,0x00,0xFF
"SPI","result",24.72698926,0.00000236,0x00,0xF3
"SPI","result",24.72699262,0.00000234,0x00,0x00
"SPI","result",24.72699596,0.00000236,0x00,0x0A
"SPI","disable",24.726999,0.00000002,,
"SPI","enable",24.72700072,0.00000002,,
"SPI","result",24.72700124,0.00000234,0x7F,0xFF
"SPI","result",24.7270044,0.00000236,0x00,0xFF
"SPI","disable",24.72700712,0.00000002,,
"SPI","enable",24.72700774,0.00000002,,
"SPI","result",24.72700818,0.00000236,0xF2,0xFF
"SPI","result",24.7270115,0.00000234,0x00,0xFE
"SPI","result",24.72701486,0.00000234,0x00,0xFA
"SPI","result",24.7270182,0.00000236,0x00,0xFF
"SPI","result",24.72702156,0.00000236,0x00,0xF2
"SPI","result",24.72702492,0.00000236,0x00,0x00
"SPI","result",24.72702828,0.00000236,0x00,0x0C
"SPI","result",24.72703164,0.00000236,0x00,0xFE
"SPI","result",24.727035,0.00000236,0x00,0xFB
"SPI","result",24.72703836,0.00000236,0x00,0xFF
"SPI","result",24.72704172,0.00000236,0x00,0xF2
"SPI","result",24.72704508,0.00000236,0x00,0x00
"SPI","result",24.72704844,0.00000236,0x00,0x0C
"SPI","disable",24.72705146,0.00000002,,
"SPI","enable",24.7270532,0.00000002,,
"SPI","result",24.7270537,0.00000236,0x7F,0xFF
"SPI","result",24.72705688,0.00000236,0x00,0xFF
"SPI","disable",24.72705958,0.00000002,,
"SPI","enable",24.7270602,0.00000002,,
"SPI","result",24.72706066,0.00000236,0xF2,0xFF
"SPI","result",24.72706396,0.00000236,0x00,0xFE
"SPI","result",24.72706732,0.00000236,0x00,0xFB
"SPI","result",24.72707068,0.00000236,0x00,0xFF
"SPI","result",24.72707404,0.00000236,0x00,0xF4
"SPI","result",24.7270774,0.00000236,0x00,0x00
"SPI","result",24.72708076,0.00000236,0x00,0x0C
"SPI","result",24.72708412,0.00000236,0x00,0xFE
"SPI","result",24.72708748,0.00000236,0x00,0xFB
"SPI","result",24.72709084,0.00000236,0x00,0xFF
"SPI","result",24.7270942,0.00000236,0x00,0xF3
"SPI","result",24.72709756,0.00000236,0x00,0x00
"SPI","result",24.72710092,0.00000236,0x00,0x0C
"SPI","disable",24.72710394,0.00000002,,
"SPI","enable",24.72710568,0.00000002,,
"SPI","result",24.72710618,0.00000236,0x7F,0xFF
"SPI","result",24.72710936,0.00000236,0x00,0xFF
"SPI","disable",24.72711206,0.00000002,,
"SPI","enable",24.72711268,0.00000002,,
"SPI","result",24.72711314,0.00000236,0xF2,0xFF
"SPI","result",24.72711644,0.00000236,0x00,0xFE
"SPI","result",24.7271198,0.00000236,0x00,0xFD
"SPI","result",24.72712316,0.00000236,0x00,0xFF
"SPI","result",24.72712652,0.00000236,0x00,0xF1
"SPI","result",24.72712988,0.00000236,0x00,0x00
"SPI","result",24.72713324,0.00000236,0x00,0x0B
"SPI","result",24.7271366,0.00000236,0x00,0xFE
"SPI","result",24.72713996,0.00000236,0x00,0xFF
"SPI","result",24.72714332,0.00000236,0x00,0xFF
"SPI","result",24.72714668,0.00000236,0x00,0xF1
"SPI","result",24.72715004,0.00000236,0x00,0x00
"SPI","result",24.7271534,0.00000236,0x00,0x09
"SPI","disable",24.72715642,0.00000002,,
"SPI","enable",24.72715816,0.00000002,,
"SPI","result",24.72715866,0.00000236,0x7F,0xFF
"SPI","result",24.72716182,0.00000236,0x00,0xFF
"SPI","disable",24.72716454,0.00000002,,
"SPI","enable",24.72716516,0.00000002,,
"SPI","result",24.7271656,0.00000236,0xF2,0xFF
"SPI","result",24.72716892,0.00000236,0x00,0xFE
"SPI","result",24.72717228,0.00000236,0x00,0xFC
"SPI","result",24.72717564,0.00000236,0x00,0xFF
"SPI","result",24.727179,0.00000236,0x00,0xF1
"SPI","result",24.72718236,0.00000234,0x00,0x00
"SPI","result",24.7271857,0.00000236,0x00,0x07
"SPI","result",24.72718906,0.00000236,0x00,0xFE
"SPI","result",24.72719242,0.00000236,0x00,0xFC
"SPI","result",24.72719578,0.00000236,0x00,0xFF
"SPI","result",24.72719914,0.00000236,0x00,0xF1
"SPI","result",24.7272025,0.00000236,0x00,0x00
"SPI","result",24.72720586,0.00000236,0x00,0x07
"SPI","disable",24.72720888,0.00000002,,
"SPI","enable",24.72721062,0.00000002,,
"SPI","result",24.72721112,0.00000236,0x7F,0xFF
"SPI","result",24.7272143,0.00000236,0x00,0xFF
"SPI","disable",24.72721702,0.00000002,,
"SPI","enable",24.72721762,0.00000002,,
"SPI","result",24.72721808,0.00000236,0xF2,0xFF
"SPI","result",24.72722138,0.00000236,0x00,0xFE
"SPI","result",24.72722474,0.00000236,0x00,0xFB
"SPI","result",24.7272281,0.00000236,0x00,0xFF
"SPI","result",24.72723146,0.00000236,0x00,0xEE
"SPI","result",24.72723482,0.00000236,0x00,0x00
"SPI","result",24.72723818,0.00000236,0x00,0x06
"SPI","result",24.72724154,0.00000236,0x00,0xFE
"SPI","result",24.7272449,0.00000236,0x00,0xF9
"SPI","result",24.72724826,0.00000236,0x00,0xFF
"SPI","result",24.72725162,0.00000236,0x00,0xED
"SPI","result",24.72725498,0.00000236,0x00,0x00
"SPI","result",24.72725834,0.00000236,0x00,0x07
"SPI","disable",24.72726136,0.00000002,,
"SPI","enable",24.7272631,0.00000002,,
"SPI","result",24.7272636,0.00000236,0x7F,0xFF
"SPI","result",24.72726678,0.00000236,0x00,0xFF
"SPI","disable",24.72726948,0.00000002,,
"SPI","enable",24.7272701,0.00000002,,
"SPI","result",24.72727056,0.00000236,0xF2,0xFF
"SPI","result",24.72727386,0.00000236,0x00,0xFE
"SPI","result",24.72727722,0.00000236,0x00,0xF8
"SPI","result",24.72728058,0.00000236,0x00,0xFF
"SPI","result",24.72728394,0.00000236,0x00,0xEE
"SPI","result",24.7272873,0.00000236,0x00,0x00
"SPI","result",24.72729066,0.00000236,0x00,0x08
"SPI","result",24.72729402,0.00000236,0x00,0xFE
"SPI","result",24.72729738,0.00000236,0x00,0xF9
"SPI","result",24.72730074,0.00000236,0x00,0xFF
"SPI","result",24.7273041,0.00000236,0x00,0xF0
"SPI","result",24.72730746,0.00000236,0x00,0x00
"SPI","result",24.72731082,0.00000236,0x00,0x0C
"SPI","disable",24.72731384,0.00000002,,
"SPI","enable",24.72731558,0.00000002,,
"SPI","result",24.72731608,0.00000236,0x7F,0xFF
"SPI","result",24.72731926,0.00000236,0x00,0xFF
"SPI","disable",24.72732196,0.00000002,,
"SPI","enable",24.72732258,0.00000002,,
"SPI","result",24.72732302,0.00000236,0xF2,0xFF
"SPI","result",24.72732634,0.00000236,0x00,0xFE
"SPI","result",24.7273297,0.00000236,0x00,0xF8
"SPI","result",24.72733306,0.00000236,0x00,0xFF
"SPI","result",24.72733642,0.00000236,0x00,0xEF
"SPI","result",24.72733978,0.00000236,0x00,0x00
"SPI","result",24.72734314,0.00000236,0x00,0x0A
"SPI","result",24.7273465,0.00000236,0x00,0xFE
"SPI","result",24.72734986,0.00000234,0x00,0xF8
"SPI","result",24.7273532,0.00000236,0x00,0xFF
"SPI","result",24.72735656,0.00000236,0x00,0xED
"SPI","result",24.72735992,0.00000236,0x00,0x00
"SPI","result",24.72736328,0.00000236,0x00,0x09
"SPI","disable",24.7273663,0.00000002,,
"SPI","enable",24.72736804,0.00000002,,
"SPI","result",24.72736854,0.00000236,0x7F,0xFF
"SPI","result",24.72737172,0.00000236,0x00,0xFF
"SPI","disable",24.72737444,0.00000002,,
"SPI","enable",24.72737506,0.00000002,,
"SPI","result",24.7273755,0.00000236,0xF2,0xFF
"SPI","result",24.7273788,0.00000236,0x00,0xFE
"SPI","result",24.72738216,0.00000236,0x00,0xFB
"SPI","result",24.72738552,0.00000236,0x00,0xFF
"SPI","result",24.72738888,0.00000236,0x00,0xF0
"SPI","result",24.72739224,0.00000236,0x00,0x00
"SPI","result",24.7273956,0.00000236,0x00,0x08
"SPI","result",24.72739896,0.00000236,0x00,0xFE
"SPI","result",24.72740232,0.00000236,0x00,0xFB
"SPI","result",24.72740568,0.00000236,0x00,0xFF
"SPI","result",24.72740904,0.00000236,0x00,0xF1
"SPI","result",24.7274124,0.00000236,0x00,0x00
"SPI","result",24.72741576,0.00000236,0x00,0x06
"SPI","disable",24.72741878,0.00000002,,
"SPI","enable",24.72742052,0.00000002,,
"SPI","result",24.72742102,0.00000236,0x7F,0xFF
"SPI","result",24.7274242,0.00000236,0x00,0xFF
"SPI","disable",24.7274269,0.00000002,,
"SPI","enable",24.72742752,0.00000002,,
"SPI","result",24.72742798,0.00000236,0xF2,0xFF
"SPI","result",24.72743128,0.00000236,0x00,0xFE
"SPI","result",24.72743464,0.00000236,0x00,0xFB
"SPI","result",24.727438,0.00000236,0x00,0xFF
"SPI","result",24.72744136,0.00000236,0x00,0xF3
"SPI","result",24.72744472,0.00000236,0x00,0x00
"SPI","result",24.72744808,0.00000236,0x00,0x05
"SPI","result",24.72745144,0.00000236,0x00,0xFE
"SPI","result",24.7274548,0.00000236,0x00,0xFB
"SPI","result",24.72745816,0.00000236,0x00,0xFF
"SPI","result",24.72746152,0.00000236,0x00,0xF4
"SPI","result",24.72746488,0.00000236,0x00,0x00
"SPI","result",24.72746824,0.00000236,0x00,0x05
"SPI","disable",24.72747126,0.00000002,,
"SPI","enable",24.727473,0.00000002,,
"SPI","result",24.7274735,0.00000236,0x7F,0xFF
"SPI","result",24.72747668,0.00000236,0x00,0xFF
"SPI","disable",24.72747938,0.00000002,,
"SPI","enable",24.72748,0.00000002,,
"SPI","result",24.72748044,0.00000236,0xF2,0xFF
"SPI","result",24.72748376,0.00000236,0x00,0xFE
"SPI","result",24.72748712,0.00000236,0x00,0xF9
"SPI","result",24.72749048,0.00000236,0x00,0xFF
"SPI","result",24.72749384,0.00000236,0x00,0xF5
"SPI","result",24.7274972,0.00000236,0x00,0x00
"SPI","result",24.72750056,0.00000236,0x00,0x05
"SPI","result",24.72750392,0.00000236,0x00,0xFE
"SPI","result",24.72750728,0.00000236,0x00,0xF8
"SPI","result",24.72751064,0.00000236,0x00,0xFF
"SPI","result",24.727514,0.00000236,0x00,0xF3
"SPI","result",24.72751736,0.00000236,0x00,0x00
"SPI","result",24.72752072,0.00000234,0x00,0x06
"SPI","disable",24.72752374,0.00000002,,
"SPI","enable",24.72752546,0.00000002,,
"SPI","result",24.72752598,0.00000234,0x7F,0xFF
"SPI","result",24.72752914,0.00000236,0x00,0xFF
"SPI","disable",24.72753186,0.00000002,,
"SPI","enable",24.72753248,0.00000002,,
"SPI","result",24.72753292,0.00000236,0xF2,0xFF
"SPI","result",24.72753624,0.00000236,0x00,0xFE
"SPI","result",24.7275396,0.00000234,0x00,0xFA
"SPI","result",24.72754294,0.00000236,0x00,0xFF
"SPI","result",24.7275463,0.00000236,0x00,0xF3
"SPI","result",24.72754966,0.00000236,0x00,0x00
"SPI","result",24.72755302,0.00000236,0x00,0x05
"SPI","result",24.72755638,0.00000236,0x00,0xFE
"SPI","result",24.72755974,0.00000236,0x00,0xFB
"SPI","result",24.7275631,0.00000236,0x00,0xFF
"SPI","result",24.72756646,0.00000236,0x00,0xF2
"SPI","result",24.72756982,0.00000236,0x00,0x00
"SPI","result",24.72757318,0.00000236,0x00,0x05
"SPI","disable",24.7275762,0.00000002,,
"SPI","enable",24.72757794,0.00000002,,
"SPI","result",24.72757844,0.00000236,0x7F,0xFF
"SPI","result",24.72758162,0.00000236,0x00,0xFF
"SPI","disable",24.72758432,0.00000002,,
"SPI","enable",24.72758494,0.00000002,,
"SPI","result",24.7275854,0.00000236,0xF2,0xFF
"SPI","result",24.7275887,0.00000236,0x00,0xFE
"SPI","result",24.72759206,0.00000236,0x00,0xFB
"SPI","result",24.72759542,0.00000236,0x00,0xFF
"SPI","result",24.72759878,0.00000236,0x00,0xF4
"SPI","result",24.72760214,0.00000236,0x00,0x00
"SPI","result",24.7276055,0.00000236,0x00,0x07
"SPI","result",24.72760886,0.00000236,0x00,0xFE
"SPI","result",24.72761222,0.00000236,0x00,0xFB
"SPI","result",24.72761558,0.00000236,0x00,0xFF
"SPI","result",24.72761894,0.00000236,0x00,0xF3
"SPI","result",24.7276223,0.00000236,0x00,0x00
"SPI","result",24.72762566,0.00000236,0x00,0x07
"SPI","disable",24.72762868,0.00000002,,
"SPI","enable",24.72763042,0.00000002,,
"SPI","result",24.72763092,0.00000236,0x7F,0xFF
"SPI","result",24.7276341,0.00000236,0x00,0xFF
"SPI","disable",24.7276368,0.00000002,,
"SPI","enable",24.72763742,0.00000002,,
"SPI","result",24.72763788,0.00000236,0xF2,0xFF
"SPI","result",24.72764118,0.00000236,0x00,0xFE
"SPI","result",24.72764454,0.00000236,0x00,0xFB
"SPI","result",24.7276479,0.00000236,0x00,0xFF
"SPI","result",24.72765126,0.00000236,0x00,0xF0
"SPI","result",24.72765462,0.00000236,0x00,0x00
"SPI","result",24.72765798,0.00000236,0x00,0x07
"SPI","result",24.72766134,0.00000236,0x00,0xFE
"SPI","result",24.7276647,0.00000236,0x00,0xFB
"SPI","result",24.72766806,0.00000236,0x00,0xFF
"SPI","result",24.72767142,0.00000236,0x00,0xF0
"SPI","result",24.72767478,0.00000236,0x00,0x00
"SPI","result",24.72767814,0.00000236,0x00,0x08
"SPI","disable",24.72768116,0.00000002,,
"SPI","enable",24.7276829,0.00000002,,
"SPI","result",24.7276834,0.00000236,0x7F,0xFF
"SPI","result",24.72768656,0.00000236,0x00,0xFF
"SPI","disable",24.72768928,0.00000002,,
"SPI","enable",24.7276899,0.00000002,,
"SPI","result",24.72769034,0.00000236,0xF2,0xFF
"SPI","result",24.72769366,0.00000236,0x00,0xFE
"SPI","result",24.72769702,0.00000236,0x00,0xFD
"SPI","result",24.72770038,0.00000236,0x00,0xFF
"SPI","result",24.72770374,0.00000236,0x00,0xF1
"SPI","result",24.7277071,0.00000234,0x00,0x00
"SPI","result",24.72771044,0.00000236,0x00,0x09
"SPI","result",24.7277138,0.00000236,0x00,0xFE
"SPI","result",24.72771716,0.00000236,0x00,0xFC
"SPI","result",24.72772052,0.00000236,0x00,0xFF
"SPI","result",24.72772388,0.00000236,0x00,0xF3
"SPI","result",24.72772724,0.00000236,0x00,0x00
"SPI","result",24.7277306,0.00000236,0x00,0x09
"SPI","disable",24.72773362,0.00000002,,
"SPI","enable",24.72773536,0.00000002,,
"SPI","result",24.72773586,0.00000236,0x7F,0xFF
"SPI","result",24.72773904,0.00000236,0x00,0xFF
"SPI","disable",24.72774176,0.00000002,,
"SPI","enable",24.72774236,0.00000002,,
"SPI","result",24.72774282,0.00000236,0xF2,0xFF
"SPI","result",24.72774612,0.00000236,0x00,0xFE
"SPI","result",24.72774948,0.00000236,0x00,0xFA
"SPI","result",24.72775284,0.00000236,0x00,0xFF
"SPI","result",24.7277562,0.00000236,0x00,0xF3
"SPI","result",24.72775956,0.00000236,0x00,0x00
"SPI","result",24.72776292,0.00000236,0x00,0x0B
"SPI","result",24.72776628,0.00000236,0x00,0xFE
"SPI","result",24.72776964,0.00000236,0x00,0xF9
"SPI","result",24.727773,0.00000236,0x00,0xFF
"SPI","result",24.72777636,0.00000236,0x00,0xF4
"SPI","result",24.72777972,0.00000236,0x00,0x00
"SPI","result",24.72778308,0.00000236,0x00,0x0C
"SPI","disable",24.7277861,0.00000002,,
"SPI","enable",24.72778784,0.00000002,,
"SPI","result",24.72778834,0.00000236,0x7F,0xFF
"SPI","result",24.72779152,0.00000236,0x00,0xFF
"SPI","disable",24.72779422,0.00000002,,
"SPI","enable",24.72779484,0.00000002,,
"SPI","result",24.7277953,0.00000236,0xF2,0xFF
"SPI","result",24.7277986,0.00000236,0x00,0xFE
"SPI","result",24.72780196,0.00000236,0x00,0xF8
"SPI","result",24.72780532,0.00000236,0x00,0xFF
"SPI","result",24.72780868,0.00000236,0x00,0xF3
"SPI","result",24.72781204,0.00000236,0x00,0x00
"SPI","result",24.7278154,0.00000236,0x00,0x0C
"SPI","result",24.72781876,0.00000236,0x00,0xFE
"SPI","result",24.72782212,0.00000236,0x00,0xF8
"SPI","result",24.72782548,0.00000236,0x00,0xFF
"SPI","result",24.72782884,0.00000236,0x00,0xF3
"SPI","result",24.7278322,0.00000236,0x00,0x00
"SPI","result",24.72783556,0.00000236,0x00,0x0C
"SPI","disable",24.72783858,0.00000002,,
"SPI","enable",24.72784032,0.00000002,,
"SPI","result",24.72784082,0.00000236,0x7F,0xFF
"SPI","result",24.727844,0.00000236,0x00,0xFF
"SPI","disable",24.7278467,0.00000002,,
"SPI","enable",24.72784732,0.00000002,,
"SPI","result",24.72784776,0.00000236,0xF2,0xFF
"SPI","result",24.72785108,0.00000236,0x00,0xFE
"SPI","result",24.72785444,0.00000236,0x00,0xF6
"SPI","result",24.7278578,0.00000236,0x00,0xFF
"SPI","result",24.72786116,0.00000236,0x00,0xF5
"SPI","result",24.72786452,0.00000236,0x00,0x00
"SPI","result",24.72786788,0.00000236,0x00,0x0C
"SPI","result",24.72787124,0.00000236,0x00,0xFE
"SPI","result",24.7278746,0.00000234,0x00,0xF6
"SPI","result",24.72787796,0.00000234,0x00,0xFF
"SPI","result",24.7278813,0.00000236,0x00,0xF6
"SPI","result",24.72788466,0.00000236,0x00,0x00
"SPI","result",24.72788802,0.00000236,0x00,0x0C
"SPI","disable",24.72789104,0.00000002,,
"SPI","enable",24.72789278,0.00000002,,
"SPI","result",24.72789328,0.00000236,0x7F,0xFF
"SPI","result",24.72789646,0.00000236,0x00,0xFF
"SPI","disable",24.72789918,0.00000002,,
"SPI","enable",24.7278998,0.00000002,,
"SPI","result",24.72790024,0.00000236,0xF2,0xFF
"SPI","result",24.72790354,0.00000236,0x00,0xFE
"SPI","result",24.7279069,0.00000236,0x00,0xF7
"SPI","result",24.72791026,0.00000236,0x00,0xFF
"SPI","result",24.72791362,0.00000236,0x00,0xF7
"SPI","result",24.72791698,0.00000236,0x00,0x00
"SPI","result",24.72792034,0.00000236,0x00,0x0B
"SPI","result",24.7279237,0.00000236,0x00,0xFE
"SPI","result",24.72792706,0.00000236,0x00,0xF8
"SPI","result",24.72793042,0.00000236,0x00,0xFF
"SPI","result",24.72793378,0.00000236,0x00,0xF7
"SPI","result",24.72793714,0.00000236,0x00,0x00
"SPI","result",24.7279405,0.00000236,0x00,0x0B
"SPI","disable",24.72794352,0.00000002,,
"SPI","enable",24.72794526,0.00000002,,
"SPI","result",24.72794576,0.00000236,0x7F,0xFF
"SPI","result",24.72794894,0.00000236,0x00,0xFF
"SPI","disable",24.72795164,0.00000002,,
"SPI","enable",24.72795226,0.00000002,,
"SPI","result",24.72795272,0.00000236,0xF2,0xFF
"SPI","result",24.72795602,0.00000236,0x00,0xFE
"SPI","result",24.72795938,0.00000236,0x00,0xFD
"SPI","result",24.72796274,0.00000236,0x00,0xFF
"SPI","result",24.7279661,0.00000236,0x00,0xF9
"SPI","result",24.72796946,0.00000236,0x00,0x00
"SPI","result",24.72797282,0.00000236,0x00,0x0A
"SPI","result",24.72797618,0.00000236,0x00,0xFE
"SPI","result",24.72797954,0.00000236,0x00,0xFF
"SPI","result",24.7279829,0.00000236,0x00,0xFF
"SPI","result",24.72798626,0.00000236,0x00,0xF8
"SPI","result",24.72798962,0.00000236,0x00,0x00
"SPI","result",24.72799298,0.00000236,0x00,0x0C
"SPI","disable",24.727996,0.00000002,,
"SPI","enable",24.72799774,0.00000002,,
"SPI","result",24.72799824,0.00000236,0x7F,0xFF
"SPI","result",24.72800142,0.00000236,0x00,0xFF
"SPI","disable",24.72800412,0.00000002,,
"SPI","enable",24.72800474,0.00000002,,
"SPI","result",24.72800518,0.00000236,0xF2,0xFF
"SPI","result",24.7280085,0.00000236,0x00,0xFE
"SPI","result",24.72801186,0.00000236,0x00,0xFD
"SPI","result",24.72801522,0.00000236,0x00,0xFF
"SPI","result",24.72801858,0.00000236,0x00,0xF6
"SPI","result",24.72802194,0.00000236,0x00,0x00
"SPI","result",24.7280253,0.00000236,0x00,0x0B
"SPI","result",24.72802866,0.00000236,0x00,0xFE
"SPI","result",24.72803202,0.00000236,0x00,0xFA
"SPI","result",24.72803538,0.00000236,0x00,0xFF
"SPI","result",24.72803874,0.00000236,0x00,0xF6
"SPI","result",24.7280421,0.00000236,0x00,0x00
"SPI","result",24.72804546,0.00000234,0x00,0x09
"SPI","disable",24.72804848,0.00000002,,
"SPI","enable",24.7280502,0.00000002,,
"SPI","result",24.72805072,0.00000236,0x7F,0xFF
"SPI","result",24.72805388,0.00000236,0x00,0xFF
"SPI","disable",24.7280566,0.00000002,,
"SPI","enable",24.72805722,0.00000002,,
"SPI","result",24.72805766,0.00000236,0xF2,0xFF
"SPI","result",24.72806098,0.00000236,0x00,0xFE
"SPI","result",24.72806434,0.00000234,0x00,0xF8
"SPI","result",24.7280677,0.00000234,0x00,0xFF
"SPI","result",24.72807104,0.00000236,0x00,0xF5
"SPI","result",24.7280744,0.00000236,0x00,0x00
"SPI","result",24.72807776,0.00000236,0x00,0x08
"SPI","result",24.72808112,0.00000236,0x00,0xFE
"SPI","result",24.72808448,0.00000236,0x00,0xFA
"SPI","result",24.72808784,0.00000236,0x00,0xFF
"SPI","result",24.7280912,0.00000236,0x00,0xF3
"SPI","result",24.72809456,0.00000236,0x00,0x00
"SPI","result",24.72809792,0.00000236,0x00,0x07
"SPI","disable",24.72810094,0.00000002,,
"SPI","enable",24.72810268,0.00000002,,
"SPI","result",24.72810318,0.00000236,0x7F,0xFF
"SPI","result",24.72810636,0.00000236,0x00,0xFF
"SPI","disable",24.72810906,0.00000002,,
"SPI","enable",24.72810968,0.00000002,,
"SPI","result",24.72811014,0.00000236,0xF2,0xFF
"SPI","result",24.72811344,0.00000236,0x00,0xFE
"SPI","result",24.7281168,0.00000236,0x00,0xFB
"SPI","result",24.72812016,0.00000236,0x00,0xFF
"SPI","result",24.72812352,0.00000236,0x00,0xF1
"SPI","result",24.72812688,0.00000236,0x00,0x00
"SPI","result",24.72813024,0.00000236,0x00,0x07
"SPI","result",24.7281336,0.00000236,0x00,0xFE
"SPI","result",24.72813696,0.00000236,0x00,0xFB
"SPI","result",24.72814032,0.00000236,0x00,0xFF
"SPI","result",24.72814368,0.00000236,0x00,0xF0
"SPI","result",24.72814704,0.00000236,0x00,0x00
"SPI","result",24.7281504,0.00000236,0x00,0x08
"SPI","disable",24.72815342,0.00000002,,
"SPI","enable",24.72815516,0.00000002,,
"SPI","result",24.72815566,0.00000236,0x7F,0xFF
"SPI","result",24.72815884,0.00000236,0x00,0xFF
"SPI","disable",24.72816154,0.00000002,,
"SPI","enable",24.72816216,0.00000002,,
"SPI","result",24.72816262,0.00000236,0xF2,0xFF
"SPI","result",24.72816592,0.00000236,0x00,0xFE
"SPI","result",24.72816928,0.00000236,0x00,0xF9
"SPI","result",24.72817264,0.00000236,0x00,0xFF
"SPI","result",24.728176,0.00000236,0x00,0xF0
"SPI","result",24.72817936,0.00000236,0x00,0x00
"SPI","result",24.72818272,0.00000236,0x00,0x07
"SPI","result",24.72818608,0.00000236,0x00,0xFE
"SPI","result",24.72818944,0.00000236,0x00,0xF9
"SPI","result",24.7281928,0.00000236,0x00,0xFF
"SPI","result",24.72819616,0.00000236,0x00,0xEE
"SPI","result",24.72819952,0.00000236,0x00,0x00
"SPI","result",24.72820288,0.00000236,0x00,0x08
"SPI","disable",24.7282059,0.00000002,,
"SPI","enable",24.72820764,0.00000002,,
"SPI","result",24.72820814,0.00000236,0x7F,0xFF
"SPI","result",24.72821132,0.00000234,0x00,0xFF
"SPI","disable",24.72821402,0.00000002,,
"SPI","enable",24.72821464,0.00000002,,
"SPI","result",24.72821508,0.00000236,0xF2,0xFF
"SPI","result",24.7282184,0.00000236,0x00,0xFE
"SPI","result",24.72822176,0.00000236,0x00,0xFA
"SPI","result",24.72822512,0.00000236,0x00,0xFF
"SPI","result",24.72822848,0.00000236,0x00,0xEE
"SPI","result",24.72823184,0.00000236,0x00,0x00
"SPI","result",24.7282352,0.00000234,0x00,0x07
"SPI","result",24.72823854,0.00000236,0x00,0xFE
"SPI","result",24.7282419,0.00000236,0x00,0xFC
"SPI","result",24.72824526,0.00000236,0x00,0xFF
"SPI","result",24.72824862,0.00000236,0x00,0xF0
"SPI","result",24.72825198,0.00000236,0x00,0x00
"SPI","result",24.72825534,0.00000236,0x00,0x05
"SPI","disable",24.72825836,0.00000002,,
"SPI","enable",24.7282601,0.00000002,,
"SPI","result",24.7282606,0.00000236,0x7F,0xFF
"SPI","result",24.72826378,0.00000236,0x00,0xFF
"SPI","disable",24.7282665,0.00000002,,
"SPI","enable",24.72826712,0.00000002,,
"SPI","result",24.72826756,0.00000236,0xF2,0xFF
"SPI","result",24.72827086,0.00000236,0x00,0xFE
"SPI","result",24.72827422,0.00000236,0x00,0xFB
"SPI","result",24.72827758,0.00000236,0x00,0xFF
"SPI","result",24.72828094,0.00000236,0x00,0xF2
"SPI","result",24.7282843,0.00000236,0x00,0x00
"SPI","result",24.72828766,0.00000236,0x00,0x04
"SPI","result",24.72829102,0.00000236,0x00,0xFE
"SPI","result",24.72829438,0.00000236,0x00,0xFB
"SPI","result",24.72829774,0.00000236,0x00,0xFF
"SPI","result",24.7283011,0.00000236,0x00,0xF3
"SPI","result",24.72830446,0.00000236,0x00,0x00
"SPI","result",24.72830782,0.00000236,0x00,0x02
"SPI","disable",24.72831084,0.00000002,,
"SPI","enable",24.72831258,0.00000002,,
"SPI","result",24.72831308,0.00000236,0x7F,0xFF
"SPI","result",24.72831626,0.00000236,0x00,0xFF
"SPI","disable",24.72831896,0.00000002,,
"SPI","enable",24.72831958,0.00000002,,
"SPI","result",24.72832004,0.00000236,0xF2,0xFF
"SPI","result",24.72832334,0.00000236,0x00,0xFE
"SPI","result",24.7283267,0.00000236,0x00,0xF9
"SPI","result",24.72833006,0.00000236,0x00,0xFF
"SPI","result",24.72833342,0.00000236,0x00,0xF2
"SPI","result",24.72833678,0.00000236,0x00,0xFF
"SPI","result",24.72834014,0.00000236,0x00,0xFF
"SPI","result",24.7283435,0.00000236,0x00,0xFE
"SPI","result",24.72834686,0.00000236,0x00,0xF9
"SPI","result",24.72835022,0.00000236,0x00,0xFF
"SPI","result",24.72835358,0.00000236,0x00,0xF1
"SPI","result",24.72835694,0.00000236,0x00,0xFF
"SPI","result",24.7283603,0.00000236,0x00,0xFC
"SPI","disable",24.72836332,0.00000002,,
"SPI","enable",24.72836506,0.00000002,,
"SPI","result",24.72836556,0.00000236,0x7F,0xFF
"SPI","result",24.72836874,0.00000236,0x00,0xFF
"SPI","disable",24.72837144,0.00000002,,
"SPI","enable",24.72837206,0.00000002,,
"SPI","result",24.7283725,0.00000236,0xF2,0xFF
"SPI","result",24.72837582,0.00000236,0x00,0xFE
"SPI","result",24.72837918,0.00000236,0x00,0xF8
"SPI","result",24.72838254,0.00000236,0x00,0xFF
"SPI","result",24.7283859,0.00000236,0x00,0xF0
"SPI","result",24.72838926,0.00000236,0x00,0xFF
"SPI","result",24.72839262,0.00000236,0x00,0xFC
"SPI","result",24.72839598,0.00000236,0x00,0xFE
"SPI","result",24.72839934,0.00000236,0x00,0xF6
"SPI","result",24.7284027,0.00000234,0x00,0xFF
"SPI","result",24.72840604,0.00000236,0x00,0xEE
"SPI","result",24.7284094,0.00000236,0x00,0xFF
"SPI","result",24.72841276,0.00000236,0x00,0xFC
"SPI","disable",24.72841578,0.00000002,,
"SPI","enable",24.72841752,0.00000002,,
"SPI","result",24.72841802,0.00000236,0x7F,0xFF
"SPI","result",24.7284212,0.00000236,0x00,0xFF
"SPI","disable",24.72842392,0.00000002,,
"SPI","enable",24.72842454,0.00000002,,
"SPI","result",24.72842498,0.00000236,0xF2,0xFF
"SPI","result",24.72842828,0.00000236,0x00,0xFE
"SPI","result",24.72843164,0.00000236,0x00,0xF4
"SPI","result",24.728435,0.00000236,0x00,0xFF
"SPI","result",24.72843836,0.00000236,0x00,0xEF
"SPI","result",24.72844172,0.00000236,0x00,0xFF
"SPI","result",24.72844508,0.00000236,0x00,0xFC
"SPI","result",24.72844844,0.00000236,0x00,0xFE
"SPI","result",24.7284518,0.00000236,0x00,0xF1
"SPI","result",24.72845516,0.00000236,0x00,0xFF
"SPI","result",24.72845852,0.00000236,0x00,0xEF
"SPI","result",24.72846188,0.00000236,0x00,0xFF
"SPI","result",24.72846524,0.00000236,0x00,0xFC
"SPI","disable",24.72846826,0.00000002,,
"SPI","enable",24.72847,0.00000002,,
"SPI","result",24.7284705,0.00000236,0x7F,0xFF
"SPI","result",24.72847368,0.00000236,0x00,0xFF
"SPI","disable",24.72847638,0.00000002,,
"SPI","enable",24.728477,0.00000002,,
"SPI","result",24.72847746,0.00000236,0xF2,0xFF
"SPI","result",24.72848076,0.00000236,0x00,0xFE
"SPI","result",24.72848412,0.00000236,0x00,0xF0
"SPI","result",24.72848748,0.00000236,0x00,0xFF
"SPI","result",24.72849084,0.00000236,0x00,0xEF
"SPI","result",24.7284942,0.00000236,0x00,0xFF
"SPI","result",24.72849756,0.00000236,0x00,0xFE
"SPI","result",24.72850092,0.00000236,0x00,0xFE
"SPI","result",24.72850428,0.00000236,0x00,0xF1
"SPI","result",24.72850764,0.00000236,0x00,0xFF
"SPI","result",24.728511,0.00000236,0x00,0xEF
"SPI","result",24.72851436,0.00000236,0x00,0xFF
"SPI","result",24.72851772,0.00000236,0x00,0xFE
"SPI","disable",24.72852074,0.00000002,,
"SPI","enable",24.72852248,0.00000002,,
"SPI","result",24.72852298,0.00000236,0x7F,0xFF
"SPI","result",24.72852616,0.00000236,0x00,0xFF
"SPI","disable",24.72852886,0.00000002,,
"SPI","enable",24.72852948,0.00000002,,
"SPI","result",24.72852994,0.00000234,0xF2,0xFF
"SPI","result",24.72853324,0.00000236,0x00,0xFE
"SPI","result",24.7285366,0.00000236,0x00,0xEF
"SPI","result",24.72853996,0.00000236,0x00,0xFF
"SPI","result",24.72854332,0.00000236,0x00,0xF1
"SPI","result",24.72854668,0.00000236,0x00,0xFF
"SPI","result",24.72855004,0.00000236,0x00,0xFD
"SPI","result",24.7285534,0.00000236,0x00,0xFE
"SPI","result",24.72855676,0.00000236,0x00,0xEE
"SPI","result",24.72856012,0.00000236,0x00,0xFF
"SPI","result",24.72856348,0.00000236,0x00,0xF0
"SPI","result",24.72856684,0.00000236,0x00,0xFF
"SPI","result",24.7285702,0.00000234,0x00,0xFB
"SPI","disable",24.72857322,0.00000002,,
"SPI","enable",24.72857494,0.00000002,,
"SPI","result",24.72857546,0.00000236,0x7F,0xFF
"SPI","result",24.72857862,0.00000236,0x00,0xFF
"SPI","disable",24.72858134,0.00000002,,
"SPI","enable",24.72858196,0.00000002,,
"SPI","result",24.7285824,0.00000236,0xF2,0xFF
"SPI","result",24.72858572,0.00000236,0x00,0xFE
"SPI","result",24.72858908,0.00000236,0x00,0xEC
"SPI","result",24.72859244,0.00000234,0x00,0xFF
"SPI","result",24.72859578,0.00000236,0x00,0xF1
"SPI","result",24.72859914,0.00000236,0x00,0xFF
"SPI","result",24.7286025,0.00000236,0x00,0xFA
"SPI","result",24.72860586,0.00000236,0x00,0xFE
"SPI","result",24.72860922,0.00000236,0x00,0xEC
"SPI","result",24.72861258,0.00000236,0x00,0xFF
"SPI","result",24.72861594,0.00000236,0x00,0xF1
"SPI","result",24.7286193,0.00000236,0x00,0xFF
"SPI","result",24.72862266,0.00000236,0x00,0xFA
"SPI","disable",24.72862568,0.00000002,,
"SPI","enable",24.72862742,0.00000002,,
"SPI","result",24.72862792,0.00000236,0x7F,0xFF
"SPI","result",24.7286311,0.00000236,0x00,0xFF
"SPI","disable",24.7286338,0.00000002,,
"SPI","enable",24.72863442,0.00000002,,
"SPI","result",24.72863488,0.00000236,0xF2,0xFF
"SPI","result",24.72863818,0.00000236,0x00,0xFE
"SPI","result",24.72864154,0.00000236,0x00,0xEE
"SPI","result",24.7286449,0.00000236,0x00,0xFF
"SPI","result",24.72864826,0.00000236,0x00,0xEF
"SPI","result",24.72865162,0.00000236,0x00,0xFF
"SPI","result",24.72865498,0.00000236,0x00,0xFB
"SPI","result",24.72865834,0.00000236,0x00,0xFE
"SPI","result",24.7286617,0.00000236,0x00,0xF1
"SPI","result",24.72866506,0.00000236,0x00,0xFF
"SPI","result",24.72866842,0.00000236,0x00,0xEB
"SPI","result",24.72867178,0.00000236,0x00,0xFF
"SPI","result",24.72867514,0.00000236,0x00,0xFB
"SPI","disable",24.72867816,0.00000002,,
"SPI","enable",24.7286799,0.00000002,,
"SPI","result",24.7286804,0.00000236,0x7F,0xFF
"SPI","result",24.72868358,0.00000236,0x00,0xFF
"SPI","disable",24.72868628,0.00000002,,
"SPI","enable",24.7286869,0.00000002,,
"SPI","result",24.72868736,0.00000236,0xF2,0xFF
"SPI","result",24.72869066,0.00000236,0x00,0xFE
"SPI","result",24.72869402,0.00000236,0x00,0xF4
"SPI","result",24.72869738,0.00000236,0x00,0xFF
"SPI","result",24.72870074,0.00000236,0x00,0xEB
"SPI","result",24.7287041,0.00000236,0x00,0xFF
"SPI","result",24.72870746,0.00000236,0x00,0xFF
"SPI","result",24.72871082,0.00000236,0x00,0xFE
"SPI","result",24.72871418,0.00000236,0x00,0xF4
"SPI","result",24.72871754,0.00000236,0x00,0xFF
"SPI","result",24.7287209,0.00000236,0x00,0xEB
"SPI","result",24.72872426,0.00000236,0x00,0x00
"SPI","result",24.72872762,0.00000236,0x00,0x00
"SPI","disable",24.72873064,0.00000002,,
"SPI","enable",24.72873238,0.00000002,,
"SPI","result",24.72873288,0.00000236,0x7F,0xFF
"SPI","result",24.72873606,0.00000234,0x00,0xFF
"SPI","disable",24.72873876,0.00000002,,
"SPI","enable",24.72873938,0.00000002,,
"SPI","result",24.72873982,0.00000236,0xF2,0xFF
"SPI","result",24.72874314,0.00000236,0x00,0xFE
"SPI","result",24.7287465,0.00000236,0x00,0xF5
"SPI","result",24.72874986,0.00000236,0x00,0xFF
"SPI","result",24.72875322,0.00000236,0x00,0xE8
"SPI","result",24.72875658,0.00000236,0x00,0x00
"SPI","result",24.72875994,0.00000234,0x00,0x02
"SPI","result",24.72876328,0.00000236,0x00,0xFE
"SPI","result",24.72876664,0.00000236,0x00,0xF7
"SPI","result",24.72877,0.00000236,0x00,0xFF
"SPI","result",24.72877336,0.00000236,0x00,0xE8
"SPI","result",24.72877672,0.00000236,0x00,0x00
"SPI","result",24.72878008,0.00000236,0x00,0x05
"SPI","disable",24.7287831,0.00000002,,
"SPI","enable",24.72878484,0.00000002,,
"SPI","result",24.72878534,0.00000236,0x7F,0xFF
"SPI","result",24.72878852,0.00000236,0x00,0xFF
"SPI","disable",24.72879124,0.00000002,,
"SPI","enable",24.72879186,0.00000002,,
"SPI","result",24.7287923,0.00000236,0xF2,0xFF
"SPI","result",24.7287956,0.00000236,0x00,0xFE
"SPI","result",24.72879896,0.00000236,0x00,0xF7
"SPI","result",24.72880232,0.00000236,0x00,0xFF
"SPI","result",24.72880568,0.00000236,0x00,0xE8
"SPI","result",24.72880904,0.00000236,0x00,0x00
"SPI","result",24.7288124,0.00000236,0x00,0x08
"SPI","result",24.72881576,0.00000236,0x00,0xFE
"SPI","result",24.72881912,0.00000236,0x00,0xF9
"SPI","result",24.72882248,0.00000236,0x00,0xFF
"SPI","result",24.72882584,0.00000236,0x00,0xE8
"SPI","result",24.7288292,0.00000236,0x00,0x00
"SPI","result",24.72883256,0.00000236,0x00,0x06
"SPI","disable",24.72883558,0.00000002,,
"SPI","enable",24.72883732,0.00000002,,
"SPI","result",24.72883782,0.00000236,0x7F,0xFF
"SPI","result",24.728841,0.00000236,0x00,0xFF
"SPI","disable",24.7288437,0.00000002,,
"SPI","enable",24.72884432,0.00000002,,
"SPI","result",24.72884478,0.00000236,0xF2,0xFF
"SPI","result",24.72884808,0.00000236,0x00,0xFE
"SPI","result",24.72885144,0.00000236,0x00,0xFA
"SPI","result",24.7288548,0.00000236,0x00,0xFF
"SPI","result",24.72885816,0.00000236,0x00,0xE9
"SPI","result",24.72886152,0.00000236,0x00,0x00
"SPI","result",24.72886488,0.00000236,0x00,0x03
"SPI","result",24.72886824,0.00000236,0x00,0xFE
"SPI","result",24.7288716,0.00000236,0x00,0xFA
"SPI","result",24.72887496,0.00000236,0x00,0xFF
"SPI","result",24.72887832,0.00000236,0x00,0xEA
"SPI","result",24.72888168,0.00000236,0x00,0x00
"SPI","result",24.72888504,0.00000236,0x00,0x05
"SPI","disable",24.72888806,0.00000002,,
"SPI","enable",24.7288898,0.00000002,,
"SPI","result",24.7288903,0.00000236,0x7F,0xFF
"SPI","result",24.72889348,0.00000236,0x00,0xFF
"SPI","disable",24.72889618,0.00000002,,
"SPI","enable",24.7288968,0.00000002,,
"SPI","result",24.72889724,0.00000236,0xF2,0xFF
"SPI","result",24.72890056,0.00000236,0x00,0xFE
"SPI","result",24.72890392,0.00000236,0x00,0xFA
"SPI","result",24.72890728,0.00000236,0x00,0xFF
"SPI","result",24.72891064,0.00000236,0x00,0xEA
"SPI","result",24.728914,0.00000236,0x00,0x00
"SPI","result",24.72891736,0.00000236,0x00,0x04
"SPI","result",24.72892072,0.00000236,0x00,0xFE
"SPI","result",24.72892408,0.00000236,0x00,0xF9
"SPI","result",24.72892744,0.00000236,0x00,0xFF
"SPI","result",24.7289308,0.00000234,0x00,0xEC
"SPI","result",24.72893414,0.00000236,0x00,0x00
"SPI","result",24.7289375,0.00000236,0x00,0x03
"SPI","disable",24.72894052,0.00000002,,
"SPI","enable",24.72894226,0.00000002,,
"SPI","result",24.72894276,0.00000236,0x7F,0xFF
"SPI","result",24.72894594,0.00000236,0x00,0xFF
"SPI","disable",24.72894866,0.00000002,,
"SPI","enable",24.72894928,0.00000002,,
"SPI","result",24.72894972,0.00000236,0xF2,0xFF
"SPI","result",24.72895302,0.00000236,0x00,0xFE
"SPI","result",24.72895638,0.00000236,0x00,0xF8
"SPI","result",24.72895974,0.00000236,0x00,0xFF
"SPI","result",24.7289631,0.00000236,0x00,0xEA
"SPI","result",24.72896646,0.00000236,0x00,0x00
"SPI","result",24.72896982,0.00000236,0x00,0x04
"SPI","result",24.72897318,0.00000236,0x00,0xFE
"SPI","result",24.72897654,0.00000236,0x00,0xFC
"SPI","result",24.7289799,0.00000236,0x00,0xFF
"SPI","result",24.72898326,0.00000236,0x00,0xEA
"SPI","result",24.72898662,0.00000236,0x00,0x00
"SPI","result",24.72898998,0.00000236,0x00,0x04
"SPI","disable",24.728993,0.00000002,,
"SPI","enable",24.72899474,0.00000002,,
"SPI","result",24.72899524,0.00000236,0x7F,0xFF
"SPI","result",24.72899842,0.00000236,0x00,0xFF
"SPI","disable",24.72900112,0.00000002,,
"SPI","enable",24.72900174,0.00000002,,
"SPI","result",24.7290022,0.00000236,0xF2,0xFF
"SPI","result",24.7290055,0.00000236,0x00,0xFE
"SPI","result",24.72900886,0.00000236,0x00,0xFC
"SPI","result",24.72901222,0.00000236,0x00,0xFF
"SPI","result",24.72901558,0.00000236,0x00,0xEA
"SPI","result",24.72901894,0.00000236,0x00,0x00
"SPI","result",24.7290223,0.00000236,0x00,0x02
"SPI","result",24.72902566,0.00000236,0x00,0xFE
"SPI","result",24.72902902,0.00000236,0x00,0xFA
"SPI","result",24.72903238,0.00000236,0x00,0xFF
"SPI","result",24.72903574,0.00000236,0x00,0xEC
"SPI","result",24.7290391,0.00000236,0x00,0x00
"SPI","result",24.72904246,0.00000236,0x00,0x01
"SPI","disable",24.72904548,0.00000002,,
"SPI","enable",24.72904722,0.00000002,,
"SPI","result",24.72904772,0.00000236,0x7F,0xFF
"SPI","result",24.7290509,0.00000236,0x00,0xFF
"SPI","disable",24.7290536,0.00000002,,
"SPI","enable",24.72905422,0.00000002,,
"SPI","result",24.72905468,0.00000234,0xF2,0xFF
"SPI","result",24.72905798,0.00000236,0x00,0xFE
"SPI","result",24.72906134,0.00000236,0x00,0xFD
"SPI","result",24.7290647,0.00000236,0x00,0xFF
"SPI","result",24.72906806,0.00000236,0x00,0xED
"SPI","result",24.72907142,0.00000236,0x00,0x00
"SPI","result",24.72907478,0.00000236,0x00,0x00
"SPI","result",24.72907814,0.00000236,0x00,0xFE
"SPI","result",24.7290815,0.00000236,0x00,0xFD
"SPI","result",24.72908486,0.00000236,0x00,0xFF
"SPI","result",24.72908822,0.00000236,0x00,0xED
"SPI","result",24.72909158,0.00000236,0x00,0x00
"SPI","result",24.72909494,0.00000236,0x00,0x01
"SPI","disable",24.72909796,0.00000002,,
"SPI","enable",24.72909968,0.00000002,,
"SPI","result",24.7291002,0.00000236,0x7F,0xFF
"SPI","result",24.72910336,0.00000236,0x00,0xFF
"SPI","disable",24.72910608,0.00000002,,
"SPI","enable",24.7291067,0.00000002,,
"SPI","result",24.72910714,0.00000236,0xF2,0xFF
"SPI","result",24.72911046,0.00000236,0x00,0xFE
"SPI","result",24.72911382,0.00000236,0x00,0xFC
"SPI","result",24.72911718,0.00000234,0x00,0xFF
"SPI","result",24.72912054,0.00000234,0x00,0xEC
"SPI","result",24.72912388,0.00000236,0x00,0x00
"SPI","result",24.72912724,0.00000236,0x00,0x00
"SPI","result",24.7291306,0.00000236,0x00,0xFE
"SPI","result",24.72913396,0.00000236,0x00,0xFD
"SPI","result",24.72913732,0.00000236,0x00,0xFF
"SPI","result",24.72914068,0.00000236,0x00,0xEA
"SPI","result",24.72914404,0.00000236,0x00,0xFF
"SPI","result",24.7291474,0.00000236,0x00,0xFF
"SPI","disable",24.72915042,0.00000002,,
"SPI","enable",24.72915216,0.00000002,,
"SPI","result",24.72915266,0.00000236,0x7F,0xFF
"SPI","result",24.72915584,0.00000236,0x00,0xFF
"SPI","disable",24.72915856,0.00000002,,
"SPI","enable",24.72915916,0.00000002,,
"SPI","result",24.72915962,0.00000236,0xF2,0xFF
"SPI","result",24.72916292,0.00000236,0x00,0xFE
"SPI","result",24.72916628,0.00000236,0x00,0xFF
"SPI","result",24.72916964,0.00000236,0x00,0xFF
"SPI","result",24.729173,0.00000236,0x00,0xEC
"SPI","result",24.72917636,0.00000236,0x00,0x00
"SPI","result",24.72917972,0.00000236,0x00,0x00
"SPI","result",24.72918308,0.00000236,0x00,0xFE
"SPI","result",24.72918644,0.00000236,0x00,0xFF
"SPI","result",24.7291898,0.00000236,0x00,0xFF
"SPI","result",24.72919316,0.00000236,0x00,0xEB
"SPI","result",24.72919652,0.00000236,0x00,0x00
"SPI","result",24.72919988,0.00000236,0x00,0x02
"SPI","disable",24.7292029,0.00000002,,
"SPI","enable",24.72920464,0.00000002,,
"SPI","result",24.72920514,0.00000236,0x7F,0xFF
"SPI","result",24.72920832,0.00000236,0x00,0xFF
"SPI","disable",24.72921102,0.00000002,,
"SPI","enable",24.72921164,0.00000002,,
"SPI","result",24.7292121,0.00000236,0xF2,0xFF
"SPI","result",24.7292154,0.00000236,0x00,0xFF
"SPI","result",24.72921876,0.00000236,0x00,0x01
"SPI","result",24.72922212,0.00000236,0x00,0xFF
"SPI","result",24.72922548,0.00000236,0x00,0xE9
"SPI","result",24.72922884,0.00000236,0x00,0x00
"SPI","result",24.7292322,0.00000236,0x00,0x04
"SPI","result",24.72923556,0.00000236,0x00,0xFF
"SPI","result",24.72923892,0.00000236,0x00,0x00
"SPI","result",24.72924228,0.00000236,0x00,0xFF
"SPI","result",24.72924564,0.00000236,0x00,0xE8
"SPI","result",24.729249,0.00000236,0x00,0x00
"SPI","result",24.72925236,0.00000236,0x00,0x04
"SPI","disable",24.72925538,0.00000002,,
"SPI","enable",24.72925712,0.00000002,,
"SPI","result",24.72925762,0.00000236,0x7F,0xFF
"SPI","result",24.7292608,0.00000234,0x00,0xFF
"SPI","disable",24.7292635,0.00000002,,
"SPI","enable",24.72926412,0.00000002,,
"SPI","result",24.72926456,0.00000236,0xF2,0xFF
"SPI","result",24.72926788,0.00000236,0x00,0xFF
"SPI","result",24.72927124,0.00000236,0x00,0x00
"SPI","result",24.7292746,0.00000236,0x00,0xFF
"SPI","result",24.72927796,0.00000236,0x00,0xE9
"SPI","result",24.72928132,0.00000236,0x00,0x00
"SPI","result",24.72928468,0.00000236,0x00,0x05
"SPI","result",24.72928804,0.00000234,0x00,0xFF
"SPI","result",24.72929138,0.00000236,0x00,0x01
"SPI","result",24.72929474,0.00000236,0x00,0xFF
"SPI","result",24.7292981,0.00000236,0x00,0xEA
"SPI","result",24.72930146,0.00000236,0x00,0x00
"SPI","result",24.72930482,0.00000236,0x00,0x03
"SPI","disable",24.72930784,0.00000002,,
"SPI","enable",24.72930958,0.00000002,,
"SPI","result",24.72931008,0.00000236,0x7F,0xFF
"SPI","result",24.72931326,0.00000236,0x00,0xFF
"SPI","disable",24.72931598,0.00000002,,
"SPI","enable",24.7293166,0.00000002,,
"SPI","result",24.72931704,0.00000236,0xF2,0xFF
"SPI","result",24.72932034,0.00000236,0x00,0xFF
"SPI","result",24.7293237,0.00000236,0x00,0x01
"SPI","result",24.72932706,0.00000236,0x00,0xFF
"SPI","result",24.72933042,0.00000236,0x00,0xEB
"SPI","result",24.72933378,0.00000236,0x00,0x00
"SPI","result",24.72933714,0.00000236,0x00,0x04
"SPI","result",24.7293405,0.00000236,0x00,0xFF
"SPI","result",24.72934386,0.00000236,0x00,0x01
"SPI","result",24.72934722,0.00000236,0x00,0xFF
"SPI","result",24.72935058,0.00000236,0x00,0xE9
"SPI","result",24.72935394,0.00000236,0x00,0x00
"SPI","result",24.7293573,0.00000236,0x00,0x04
"SPI","disable",24.72936032,0.00000002,,
"SPI","enable",24.72936206,0.00000002,,
"SPI","result",24.72936256,0.00000236,0x7F,0xFF
"SPI","result",24.72936574,0.00000236,0x00,0xFF
"SPI","disable",24.72936844,0.00000002,,
"SPI","enable",24.72936906,0.00000002,,
"SPI","result",24.72936952,0.00000236,0xF2,0xFF
"SPI","result",24.72937282,0.00000236,0x00,0xFF
"SPI","result",24.72937618,0.00000236,0x00,0x00
"SPI","result",24.72937954,0.00000236,0x00,0xFF
"SPI","result",24.7293829,0.00000236,0x00,0xEB
"SPI","result",24.72938626,0.00000236,0x00,0x00
"SPI","result",24.72938962,0.00000236,0x00,0x06
"SPI","result",24.72939298,0.00000236,0x00,0xFF
"SPI","result",24.72939634,0.00000236,0x00,0x01
"SPI","result",24.7293997,0.00000236,0x00,0xFF
"SPI","result",24.72940306,0.00000236,0x00,0xEC
"SPI","result",24.72940642,0.00000236,0x00,0x00
"SPI","result",24.72940978,0.00000236,0x00,0x09
"SPI","disable",24.7294128,0.00000002,,
"SPI","enable",24.72941454,0.00000002,,
"SPI","result",24.72941504,0.00000236,0x7F,0xFF
"SPI","result",24.72941822,0.00000236,0x00,0xFF
"SPI","disable",24.72942092,0.00000002,,
"SPI","enable",24.72942154,0.00000002,,
"SPI","result",24.72942198,0.00000236,0xF2,0xFF
"SPI","result",24.7294253,0.00000236,0x00,0xFE
"SPI","result",24.72942866,0.00000236,0x00,0xFF
"SPI","result",24.72943202,0.00000236,0x00,0xFF
"SPI","result",24.72943538,0.00000236,0x00,0xEB
"SPI","result",24.72943874,0.00000236,0x00,0x00
"SPI","result",24.7294421,0.00000236,0x00,0x0A
"SPI","result",24.72944546,0.00000236,0x00,0xFE
"SPI","result",24.72944882,0.00000236,0x00,0xFF
"SPI","result",24.72945218,0.00000236,0x00,0xFF
"SPI","result",24.72945554,0.00000234,0x00,0xED
"SPI","result",24.72945888,0.00000236,0x00,0x00
"SPI","result",24.72946224,0.00000236,0x00,0x0A
"SPI","disable",24.72946526,0.00000002,,
"SPI","enable",24.729467,0.00000002,,
"SPI","result",24.7294675,0.00000236,0x7F,0xFF
"SPI","result",24.72947068,0.00000236,0x00,0xFF
"SPI","disable",24.7294734,0.00000002,,
"SPI","enable",24.72947402,0.00000002,,
"SPI","result",24.72947446,0.00000236,0xF2,0xFF
"SPI","result",24.72947778,0.00000234,0x00,0xFE
"SPI","result",24.72948112,0.00000236,0x00,0xFF
"SPI","result",24.72948448,0.00000236,0x00,0xFF
"SPI","result",24.72948784,0.00000236,0x00,0xEC
"SPI","result",24.7294912,0.00000236,0x00,0x00
"SPI","result",24.72949456,0.00000236,0x00,0x08
"SPI","result",24.72949792,0.00000236,0x00,0xFE
"SPI","result",24.72950128,0.00000236,0x00,0xFC
"SPI","result",24.72950464,0.00000236,0x00,0xFF
"SPI","result",24.729508,0.00000236,0x00,0xED
"SPI","result",24.72951136,0.00000236,0x00,0x00
"SPI","result",24.72951472,0.00000236,0x00,0x06
"SPI","disable",24.72951774,0.00000002,,
"SPI","enable",24.72951948,0.00000002,,
"SPI","result",24.72951998,0.00000236,0x7F,0xFF
"SPI","result",24.72952316,0.00000236,0x00,0xFF
"SPI","disable",24.72952586,0.00000002,,
"SPI","enable",24.72952648,0.00000002,,
"SPI","result",24.72952694,0.00000236,0xF2,0xFF
"SPI","result",24.72953024,0.00000236,0x00,0xFE
"SPI","result",24.7295336,0.00000236,0x00,0xFD
"SPI","result",24.72953696,0.00000236,0x00,0xFF
"SPI","result",24.72954032,0.00000236,0x00,0xED
"SPI","result",24.72954368,0.00000236,0x00,0x00
"SPI","result",24.72954704,0.00000236,0x00,0x06
"SPI","result",24.7295504,0.00000236,0x00,0xFE
"SPI","result",24.72955376,0.00000236,0x00,0xFF
"SPI","result",24.72955712,0.00000236,0x00,0xFF
"SPI","result",24.72956048,0.00000236,0x00,0xED
"SPI","result",24.72956384,0.00000236,0x00,0x00
"SPI","result",24.7295672,0.00000236,0x00,0x05
"SPI","disable",24.72957022,0.00000002,,
"SPI","enable",24.72957196,0.00000002,,
"SPI","result",24.72957246,0.00000236,0x7F,0xFF
"SPI","result",24.72957564,0.00000236,0x00,0xFF
"SPI","disable",24.72957834,0.00000002,,
"SPI","enable",24.72957896,0.00000002,,
"SPI","result",24.72957942,0.00000236,0xF2,0xFF
"SPI","result",24.72958272,0.00000236,0x00,0xFF
"SPI","result",24.72958608,0.00000236,0x00,0x00
"SPI","result",24.72958944,0.00000236,0x00,0xFF
"SPI","result",24.7295928,0.00000236,0x00,0xEC
"SPI","result",24.72959616,0.00000236,0x00,0x00
"SPI","result",24.72959952,0.00000236,0x00,0x04
"SPI","result",24.72960288,0.00000236,0x00,0xFF
"SPI","result",24.72960624,0.00000236,0x00,0x01
"SPI","result",24.7296096,0.00000236,0x00,0xFF
"SPI","result",24.72961296,0.00000236,0x00,0xED
"SPI","result",24.72961632,0.00000236,0x00,0x00
"SPI","result",24.72961968,0.00000236,0x00,0x05
"SPI","disable",24.7296227,0.00000002,,
"SPI","enable",24.72962442,0.00000002,,
"SPI","result",24.72962494,0.00000236,0x7F,0xFF
"SPI","result",24.7296281,0.00000236,0x00,0xFF
"SPI","disable",24.72963082,0.00000002,,
"SPI","enable",24.72963144,0.00000002,,
"SPI","result",24.72963188,0.00000236,0xF2,0xFF
"SPI","result",24.7296352,0.00000236,0x00,0xFF
"SPI","result",24.72963856,0.00000236,0x00,0x02
"SPI","result",24.72964192,0.00000236,0x00,0xFF
"SPI","result",24.72964528,0.00000234,0x00,0xF0
"SPI","result",24.72964862,0.00000236,0x00,0x00
"SPI","result",24.72965198,0.00000236,0x00,0x07
"SPI","result",24.72965534,0.00000236,0x00,0xFF
"SPI","result",24.7296587,0.00000236,0x00,0x03
"SPI","result",24.72966206,0.00000236,0x00,0xFF
"SPI","result",24.72966542,0.00000236,0x00,0xF1
"SPI","result",24.72966878,0.00000236,0x00,0x00
"SPI","result",24.72967214,0.00000236,0x00,0x08
"SPI","disable",24.72967516,0.00000002,,
"SPI","enable",24.7296769,0.00000002,,
"SPI","result",24.7296774,0.00000236,0x7F,0xFF
"SPI","result",24.72968058,0.00000236,0x00,0xFF
"SPI","disable",24.7296833,0.00000002,,
"SPI","enable",24.7296839,0.00000002,,
"SPI","result",24.72968436,0.00000236,0xF2,0xFF
"SPI","result",24.72968766,0.00000236,0x00,0xFF
"SPI","result",24.72969102,0.00000236,0x00,0x02
"SPI","result",24.72969438,0.00000236,0x00,0xFF
"SPI","result",24.72969774,0.00000236,0x00,0xF1
"SPI","result",24.7297011,0.00000236,0x00,0x00
"SPI","result",24.72970446,0.00000236,0x00,0x0A
"SPI","result",24.72970782,0.00000236,0x00,0xFF
"SPI","result",24.72971118,0.00000236,0x00,0x04
"SPI","result",24.72971454,0.00000236,0x00,0xFF
"SPI","result",24.7297179,0.00000236,0x00,0xF2
"SPI","result",24.72972126,0.00000236,0x00,0x00
"SPI","result",24.72972462,0.00000236,0x00,0x0B
"SPI","disable",24.72972764,0.00000002,,
"SPI","enable",24.72972938,0.00000002,,
"SPI","result",24.72972988,0.00000236,0x7F,0xFF
"SPI","result",24.72973306,0.00000236,0x00,0xFF
"SPI","disable",24.72973576,0.00000002,,
"SPI","enable",24.72973638,0.00000002,,
"SPI","result",24.72973684,0.00000236,0xF2,0xFF
"SPI","result",24.72974014,0.00000236,0x00,0xFF
"SPI","result",24.7297435,0.00000236,0x00,0x05
"SPI","result",24.72974686,0.00000236,0x00,0xFF
"SPI","result",24.72975022,0.00000236,0x00,0xF3
"SPI","result",24.72975358,0.00000236,0x00,0x00
"SPI","result",24.72975694,0.00000236,0x00,0x0B
"SPI","result",24.7297603,0.00000236,0x00,0xFF
"SPI","result",24.72976366,0.00000236,0x00,0x07
"SPI","result",24.72976702,0.00000236,0x00,0xFF
"SPI","result",24.72977038,0.00000236,0x00,0xF0
"SPI","result",24.72977374,0.00000236,0x00,0x00
"SPI","result",24.7297771,0.00000236,0x00,0x0A
"SPI","disable",24.72978012,0.00000002,,
"SPI","enable",24.72978186,0.00000002,,
"SPI","result",24.72978236,0.00000236,0x7F,0xFF
"SPI","result",24.72978554,0.00000236,0x00,0xFF
"SPI","disable",24.72978824,0.00000002,,
"SPI","enable",24.72978886,0.00000002,,
"SPI","result",24.7297893,0.00000236,0xF2,0xFF
"SPI","result",24.72979262,0.00000236,0x00,0xFF
"SPI","result",24.72979598,0.00000236,0x00,0x09
"SPI","result",24.72979934,0.00000236,0x00,0xFF
"SPI","result",24.7298027,0.00000236,0x00,0xF0
"SPI","result",24.72980606,0.00000236,0x00,0x00
"SPI","result",24.72980942,0.00000236,0x00,0x08
"SPI","result",24.72981278,0.00000234,0x00,0xFF
"SPI","result",24.72981614,0.00000234,0x00,0x0A
"SPI","result",24.72981948,0.00000236,0x00,0xFF
"SPI","result",24.72982284,0.00000236,0x00,0xF3
"SPI","result",24.7298262,0.00000236,0x00,0x00
"SPI","result",24.72982956,0.00000236,0x00,0x08
"SPI","disable",24.72983258,0.00000002,,
"SPI","enable",24.72983432,0.00000002,,
"SPI","result",24.72983482,0.00000236,0x7F,0xFF
"SPI","result",24.729838,0.00000236,0x00,0xFF
"SPI","disable",24.72984072,0.00000002,,
"SPI","enable",24.72984134,0.00000002,,
"SPI","result",24.72984178,0.00000236,0xF2,0xFF
"SPI","result",24.72984508,0.00000236,0x00,0xFF
"SPI","result",24.72984844,0.00000236,0x00,0x09
"SPI","result",24.7298518,0.00000236,0x00,0xFF
"SPI","result",24.72985516,0.00000236,0x00,0xF3
"SPI","result",24.72985852,0.00000236,0x00,0x00
"SPI","result",24.72986188,0.00000236,0x00,0x08
"SPI","result",24.72986524,0.00000236,0x00,0xFF
"SPI","result",24.7298686,0.00000236,0x00,0x06
"SPI","result",24.72987196,0.00000236,0x00,0xFF
"SPI","result",24.72987532,0.00000236,0x00,0xF0
"SPI","result",24.72987868,0.00000236,0x00,0x00
"SPI","result",24.72988204,0.00000236,0x00,0x08
"SPI","disable",24.72988506,0.00000002,,
"SPI","enable",24.7298868,0.00000002,,
"SPI","result",24.7298873,0.00000236,0x7F,0xFF
"SPI","result",24.72989048,0.00000236,0x00,0xFF
"SPI","disable",24.72989318,0.00000002,,
"SPI","enable",24.7298938,0.00000002,,
"SPI","result",24.72989426,0.00000236,0xF2,0xFF
"SPI","result",24.72989756,0.00000236,0x00,0xFF
"SPI","result",24.72990092,0.00000236,0x00,0x04
"SPI","result",24.72990428,0.00000236,0x00,0xFF
"SPI","result",24.72990764,0.00000236,0x00,0xEF
"SPI","result",24.729911,0.00000236,0x00,0x00
"SPI","result",24.72991436,0.00000236,0x00,0x07
"SPI","result",24.72991772,0.00000236,0x00,0xFF
"SPI","result",24.72992108,0.00000236,0x00,0x01
"SPI","result",24.72992444,0.00000236,0x00,0xFF
"SPI","result",24.7299278,0.00000236,0x00,0xF0
"SPI","result",24.72993116,0.00000236,0x00,0x00
"SPI","result",24.72993452,0.00000236,0x00,0x06
"SPI","disable",24.72993754,0.00000002,,
"SPI","enable",24.72993928,0.00000002,,
"SPI","result",24.72993978,0.00000236,0x7F,0xFF
"SPI","result",24.72994296,0.00000236,0x00,0xFF
"SPI","disable",24.72994566,0.00000002,,
"SPI","enable",24.72994628,0.00000002,,
"SPI","result",24.72994672,0.00000236,0xF2,0xFF
"SPI","result",24.72995004,0.00000236,0x00,0xFE
"SPI","result",24.7299534,0.00000236,0x00,0xFF
"SPI","result",24.72995676,0.00000236,0x00,0xFF
"SPI","result",24.72996012,0.00000236,0x00,0xF2
"SPI","result",24.72996348,0.00000236,0x00,0x00
"SPI","result",24.72996684,0.00000236,0x00,0x06
"SPI","result",24.7299702,0.00000236,0x00,0xFF
"SPI","result",24.72997356,0.00000236,0x00,0x00
"SPI","result",24.72997692,0.00000236,0x00,0xFF
"SPI","result",24.72998028,0.00000234,0x00,0xF2
"SPI","result",24.72998364,0.00000234,0x00,0x00
"SPI","result",24.72998698,0.00000236,0x00,0x03
"SPI","disable",24.72999002,0.00000002,,
"SPI","enable",24.72999174,0.00000002,,
"SPI","result",24.72999226,0.00000234,0x7F,0xFF
"SPI","result",24.72999542,0.00000236,0x00,0xFF
"SPI","disable",24.72999814,0.00000002,,
"SPI","enable",24.72999876,0.00000002,,
"SPI","result",24.7299992,0.00000236,0xF2,0xFF
"SPI","result",24.73000252,0.00000234,0x00,0xFE
"SPI","result",24.73000586,0.00000236,0x00,0xFE
"SPI","result",24.73000922,0.00000236,0x00,0xFF
"SPI","result",24.73001258,0.00000236,0x00,0xF3
"SPI","result",24.73001594,0.00000236,0x00,0x00
"SPI","result",24.7300193,0.00000236,0x00,0x03
"SPI","result",24.73002266,0.00000236,0x00,0xFE
"SPI","result",24.73002602,0.00000236,0x00,0xFE
"SPI","result",24.73002938,0.00000236,0x00,0xFF
"SPI","result",24.73003274,0.00000236,0x00,0xF2
"SPI","result",24.7300361,0.00000236,0x00,0x00
"SPI","result",24.73003946,0.00000236,0x00,0x01
"SPI","disable",24.73004248,0.00000002,,
"SPI","enable",24.73004422,0.00000002,,
"SPI","result",24.73004472,0.00000236,0x7F,0xFF
"SPI","result",24.7300479,0.00000236,0x00,0xFF
"SPI","disable",24.7300506,0.00000002,,
"SPI","enable",24.73005122,0.00000002,,
"SPI","result",24.73005168,0.00000236,0xF2,0xFF
"SPI","result",24.73005498,0.00000236,0x00,0xFE
"SPI","result",24.73005834,0.00000236,0x00,0xFF
"SPI","result",24.7300617,0.00000236,0x00,0xFF
"SPI","result",24.73006506,0.00000236,0x00,0xF2
"SPI","result",24.73006842,0.00000236,0x00,0x00
"SPI","result",24.73007178,0.00000236,0x00,0x01
"SPI","result",24.73007514,0.00000236,0x00,0xFE
"SPI","result",24.7300785,0.00000236,0x00,0xFB
"SPI","result",24.73008186,0.00000236,0x00,0xFF
"SPI","result",24.73008522,0.00000236,0x00,0xF0
"SPI","result",24.73008858,0.00000236,0x00,0x00
"SPI","result",24.73009194,0.00000236,0x00,0x00
"SPI","disable",24.73009496,0.00000002,,
"SPI","enable",24.7300967,0.00000002,,
"SPI","result",24.7300972,0.00000236,0x7F,0xFF
"SPI","result",24.73010038,0.00000236,0x00,0xFF
"SPI","disable",24.73010308,0.00000002,,
"SPI","enable",24.7301037,0.00000002,,
"SPI","result",24.73010416,0.00000236,0xF2,0xFF
"SPI","result",24.73010746,0.00000236,0x00,0xFE
"SPI","result",24.73011082,0.00000236,0x00,0xFA
"SPI","result",24.73011418,0.00000236,0x00,0xFF
"SPI","result",24.73011754,0.00000236,0x00,0xF1
"SPI","result",24.7301209,0.00000236,0x00,0xFF
"SPI","result",24.73012426,0.00000236,0x00,0xFF
"SPI","result",24.73012762,0.00000236,0x00,0xFE
"SPI","result",24.73013098,0.00000236,0x00,0xFB
"SPI","result",24.73013434,0.00000236,0x00,0xFF
"SPI","result",24.7301377,0.00000236,0x00,0xF2
"SPI","result",24.73014106,0.00000236,0x00,0x00
"SPI","result",24.73014442,0.00000236,0x00,0x01
"SPI","disable",24.73014744,0.00000002,,
"SPI","enable",24.73014918,0.00000002,,
"SPI","result",24.73014968,0.00000236,0x7F,0xFF
"SPI","result",24.73015284,0.00000236,0x00,0xFF
"SPI","disable",24.73015556,0.00000002,,
"SPI","enable",24.73015618,0.00000002,,
"SPI","result",24.73015662,0.00000236,0xF2,0xFF
"SPI","result",24.73015994,0.00000236,0x00,0xFE
"SPI","result",24.7301633,0.00000236,0x00,0xFC
"SPI","result",24.73016666,0.00000236,0x00,0xFF
"SPI","result",24.73017002,0.00000234,0x00,0xF0
"SPI","result",24.73017338,0.00000234,0x00,0x00
"SPI","result",24.73017672,0.00000236,0x00,0x02
"SPI","result",24.73018008,0.00000236,0x00,0xFE
"SPI","result",24.73018344,0.00000236,0x00,0xFF
"SPI","result",24.7301868,0.00000236,0x00,0xFF
"SPI","result",24.73019016,0.00000236,0x00,0xF0
"SPI","result",24.73019352,0.00000236,0x00,0x00
"SPI","result",24.73019688,0.00000236,0x00,0x03
"SPI","disable",24.7301999,0.00000002,,
"SPI","enable",24.73020164,0.00000002,,
"SPI","result",24.73020214,0.00000236,0x7F,0xFF
"SPI","result",24.73020532,0.00000236,0x00,0xFF
"SPI","disable",24.73020804,0.00000002,,
"SPI","enable",24.73020864,0.00000002,,
"SPI","result",24.7302091,0.00000236,0xF2,0xFF
"SPI","result",24.7302124,0.00000236,0x00,0xFF
"SPI","result",24.73021576,0.00000236,0x00,0x01
"SPI","result",24.73021912,0.00000236,0x00,0xFF
"SPI","result",24.73022248,0.00000236,0x00,0xF1
"SPI","result",24.73022584,0.00000236,0x00,0x00
"SPI","result",24.7302292,0.00000236,0x00,0x03
"SPI","result",24.73023256,0.00000236,0x00,0xFF
"SPI","result",24.73023592,0.00000236,0x00,0x02
"SPI","result",24.73023928,0.00000236,0x00,0xFF
"SPI","result",24.73024264,0.00000236,0x00,0xF1
"SPI","result",24.730246,0.00000236,0x00,0x00
"SPI","result",24.73024936,0.00000236,0x00,0x03
"SPI","disable",24.73025238,0.00000002,,
"SPI","enable",24.73025412,0.00000002,,
"SPI","result",24.73025462,0.00000236,0x7F,0xFF
"SPI","result",24.7302578,0.00000236,0x00,0xFF
"SPI","disable",24.7302605,0.00000002,,
"SPI","enable",24.73026112,0.00000002,,
"SPI","result",24.73026158,0.00000236,0xF2,0xFF
"SPI","result",24.73026488,0.00000236,0x00,0xFF
"SPI","result",24.73026824,0.00000236,0x00,0x03
"SPI","result",24.7302716,0.00000236,0x00,0xFF
"SPI","result",24.73027496,0.00000236,0x00,0xF3
"SPI","result",24.73027832,0.00000236,0x00,0x00
"SPI","result",24.73028168,0.00000236,0x00,0x00
"SPI","result",24.73028504,0.00000236,0x00,0xFF
"SPI","result",24.7302884,0.00000236,0x00,0x05
"SPI","result",24.73029176,0.00000236,0x00,0xFF
"SPI","result",24.73029512,0.00000236,0x00,0xF4
"SPI","result",24.73029848,0.00000236,0x00,0x00
"SPI","result",24.73030184,0.00000236,0x00,0x01
"SPI","disable",24.73030486,0.00000002,,
"SPI","enable",24.7303066,0.00000002,,
"SPI","result",24.7303071,0.00000236,0x7F,0xFF
"SPI","result",24.73031028,0.00000236,0x00,0xFF
"SPI","disable",24.73031298,0.00000002,,
"SPI","enable",24.7303136,0.00000002,,
"SPI","result",24.73031404,0.00000236,0xF2,0xFF
"SPI","result",24.73031736,0.00000236,0x00,0xFF
"SPI","result",24.73032072,0.00000236,0x00,0x08
"SPI","result",24.73032408,0.00000236,0x00,0xFF
"SPI","result",24.73032744,0.00000236,0x00,0xF5
"SPI","result",24.7303308,0.00000236,0x00,0x00
"SPI","result",24.73033416,0.00000236,0x00,0x00
"SPI","result",24.73033752,0.00000236,0x00,0xFF
"SPI","result",24.73034088,0.00000234,0x00,0x07
"SPI","result",24.73034422,0.00000236,0x00,0xFF
"SPI","result",24.73034758,0.00000236,0x00,0xF7
"SPI","result",24.73035094,0.00000236,0x00,0x00
"SPI","result",24.7303543,0.00000236,0x00,0x02
"SPI","disable",24.73035732,0.00000002,,
"SPI","enable",24.73035906,0.00000002,,
"SPI","result",24.73035956,0.00000236,0x7F,0xFF
"SPI","result",24.73036274,0.00000236,0x00,0xFF
"SPI","disable",24.73036546,0.00000002,,
"SPI","enable",24.73036608,0.00000002,,
"SPI","result",24.73036652,0.00000236,0xF2,0xFF
"SPI","result",24.73036982,0.00000236,0x00,0xFF
"SPI","result",24.73037318,0.00000236,0x00,0x06
"SPI","result",24.73037654,0.00000236,0x00,0xFF
"SPI","result",24.7303799,0.00000236,0x00,0xF8
"SPI","result",24.73038326,0.00000236,0x00,0x00
"SPI","result",24.73038662,0.00000236,0x00,0x02
"SPI","result",24.73038998,0.00000236,0x00,0xFF
"SPI","result",24.73039334,0.00000236,0x00,0x05
"SPI","result",24.7303967,0.00000236,0x00,0xFF
"SPI","result",24.73040006,0.00000236,0x00,0xF7
"SPI","result",24.73040342,0.00000236,0x00,0x00
"SPI","result",24.73040678,0.00000236,0x00,0x05
"SPI","disable",24.7304098,0.00000002,,
"SPI","enable",24.73041154,0.00000002,,
"SPI","result",24.73041204,0.00000236,0x7F,0xFF
"SPI","result",24.73041522,0.00000236,0x00,0xFF
"SPI","disable",24.73041792,0.00000002,,
"SPI","enable",24.73041854,0.00000002,,
"SPI","result",24.730419,0.00000236,0xF2,0xFF
"SPI","result",24.7304223,0.00000236,0x00,0xFF
"SPI","result",24.73042566,0.00000236,0x00,0x03
"SPI","result",24.73042902,0.00000236,0x00,0xFF
"SPI","result",24.73043238,0.00000236,0x00,0xF3
"SPI","result",24.73043574,0.00000236,0x00,0x00
"SPI","result",24.7304391,0.00000236,0x00,0x07
"SPI","result",24.73044246,0.00000236,0x00,0xFF
"SPI","result",24.73044582,0.00000236,0x00,0x00
"SPI","result",24.73044918,0.00000236,0x00,0xFF
"SPI","result",24.73045254,0.00000236,0x00,0xF1
"SPI","result",24.7304559,0.00000236,0x00,0x00
"SPI","result",24.73045926,0.00000236,0x00,0x06
"SPI","disable",24.73046228,0.00000002,,
"SPI","enable",24.73046402,0.00000002,,
"SPI","result",24.73046452,0.00000236,0x7F,0xFF
"SPI","result",24.7304677,0.00000236,0x00,0xFF
"SPI","disable",24.7304704,0.00000002,,
"SPI","enable",24.73047102,0.00000002,,
"SPI","result",24.73047146,0.00000236,0xF2,0xFF
"SPI","result",24.73047478,0.00000236,0x00,0xFE
"SPI","result",24.73047814,0.00000236,0x00,0xFE
"SPI","result",24.7304815,0.00000236,0x00,0xFF
"SPI","result",24.73048486,0.00000236,0x00,0xF2
"SPI","result",24.73048822,0.00000236,0x00,0x00
"SPI","result",24.73049158,0.00000236,0x00,0x06
"SPI","result",24.73049494,0.00000236,0x00,0xFF
"SPI","result",24.7304983,0.00000236,0x00,0x00
"SPI","result",24.73050166,0.00000236,0x00,0xFF
"SPI","result",24.73050502,0.00000236,0x00,0xF1
"SPI","result",24.73050838,0.00000234,0x00,0x00
"SPI","result",24.73051172,0.00000236,0x00,0x07
"SPI","disable",24.73051476,0.00000002,,
"SPI","enable",24.73051648,0.00000002,,
"SPI","result",24.730517,0.00000234,0x7F,0xFF
"SPI","result",24.73052016,0.00000236,0x00,0xFF
"SPI","disable",24.73052288,0.00000002,,
"SPI","enable",24.7305235,0.00000002,,
"SPI","result",24.73052394,0.00000236,0xF2,0xFF
"SPI","result",24.73052726,0.00000236,0x00,0xFF
"SPI","result",24.73053062,0.00000234,0x00,0x00
"SPI","result",24.73053396,0.00000236,0x00,0xFF
"SPI","result",24.73053732,0.00000236,0x00,0xF2
"SPI","result",24.73054068,0.00000236,0x00,0x00
"SPI","result",24.73054404,0.00000236,0x00,0x04
"SPI","result",24.7305474,0.00000236,0x00,0xFF
"SPI","result",24.73055076,0.00000236,0x00,0x00
"SPI","result",24.73055412,0.00000236,0x00,0xFF
"SPI","result",24.73055748,0.00000236,0x00,0xF2
"SPI","result",24.73056084,0.00000236,0x00,0x00
"SPI","result",24.7305642,0.00000236,0x00,0x04
"SPI","disable",24.73056722,0.00000002,,
"SPI","enable",24.73056896,0.00000002,,
"SPI","result",24.73056946,0.00000236,0x7F,0xFF
"SPI","result",24.73057264,0.00000236,0x00,0xFF
"SPI","disable",24.73057534,0.00000002,,
"SPI","enable",24.73057596,0.00000002,,
"SPI","result",24.73057642,0.00000236,0xF2,0xFF
"SPI","result",24.73057972,0.00000236,0x00,0xFF
"SPI","result",24.73058308,0.00000236,0x00,0x02
"SPI","result",24.73058644,0.00000236,0x00,0xFF
"SPI","result",24.7305898,0.00000236,0x00,0xF2
"SPI","result",24.73059316,0.00000236,0x00,0x00
"SPI","result",24.73059652,0.00000236,0x00,0x04
"SPI","result",24.73059988,0.00000236,0x00,0xFF
"SPI","result",24.73060324,0.00000236,0x00,0x04
"SPI","result",24.7306066,0.00000236,0x00,0xFF
"SPI","result",24.73060996,0.00000236,0x00,0xF3
"SPI","result",24.73061332,0.00000236,0x00,0x00
"SPI","result",24.73061668,0.00000236,0x00,0x03
"SPI","disable",24.7306197,0.00000002,,
"SPI","enable",24.73062144,0.00000002,,
"SPI","result",24.73062194,0.00000236,0x7F,0xFF
"SPI","result",24.73062512,0.00000236,0x00,0xFF
"SPI","disable",24.73062782,0.00000002,,
"SPI","enable",24.73062844,0.00000002,,
"SPI","result",24.7306289,0.00000236,0xF2,0xFF
"SPI","result",24.7306322,0.00000236,0x00,0xFF
"SPI","result",24.73063556,0.00000236,0x00,0x05
"SPI","result",24.73063892,0.00000236,0x00,0xFF
"SPI","result",24.73064228,0.00000236,0x00,0xF4
"SPI","result",24.73064564,0.00000236,0x00,0x00
"SPI","result",24.730649,0.00000236,0x00,0x03
"SPI","result",24.73065236,0.00000236,0x00,0xFF
"SPI","result",24.73065572,0.00000236,0x00,0x02
"SPI","result",24.73065908,0.00000236,0x00,0xFF
"SPI","result",24.73066244,0.00000236,0x00,0xF5
"SPI","result",24.7306658,0.00000236,0x00,0x00
"SPI","result",24.73066916,0.00000236,0x00,0x01
"SPI","disable",24.73067218,0.00000002,,
"SPI","enable",24.73067392,0.00000002,,
"SPI","result",24.73067442,0.00000236,0x7F,0xFF
"SPI","result",24.73067758,0.00000236,0x00,0xFF
"SPI","disable",24.7306803,0.00000002,,
"SPI","enable",24.73068092,0.00000002,,
"SPI","result",24.73068136,0.00000236,0xF2,0xFF
"SPI","result",24.73068468,0.00000236,0x00,0xFF
"SPI","result",24.73068804,0.00000236,0x00,0x01
"SPI","result",24.7306914,0.00000236,0x00,0xFF
"SPI","result",24.73069476,0.00000236,0x00,0xF5
"SPI","result",24.73069812,0.00000234,0x00,0x00
"SPI","result",24.73070146,0.00000236,0x00,0x00
"SPI","result",24.73070482,0.00000236,0x00,0xFF
"SPI","result",24.73070818,0.00000236,0x00,0x03
"SPI","result",24.73071154,0.00000236,0x00,0xFF
"SPI","result",24.7307149,0.00000236,0x00,0xF5
"SPI","result",24.73071826,0.00000236,0x00,0x00
"SPI","result",24.73072162,0.00000236,0x00,0x00
"SPI","disable",24.73072464,0.00000002,,
"SPI","enable",24.73072638,0.00000002,,
"SPI","result",24.73072688,0.00000236,0x7F,0xFF
"SPI","result",24.73073006,0.00000236,0x00,0xFF
"SPI","disable",24.73073278,0.00000002,,
"SPI","enable",24.73073338,0.00000002,,
"SPI","result",24.73073384,0.00000236,0xF2,0xFF
"SPI","result",24.73073714,0.00000236,0x00,0xFF
"SPI","result",24.7307405,0.00000236,0x00,0x04
"SPI","result",24.73074386,0.00000236,0x00,0xFF
"SPI","result",24.73074722,0.00000236,0x00,0xF5
"SPI","result",24.73075058,0.00000236,0x00,0x00
"SPI","result",24.73075394,0.00000236,0x00,0x01
"SPI","result",24.7307573,0.00000236,0x00,0xFF
"SPI","result",24.73076066,0.00000236,0x00,0x04
"SPI","result",24.73076402,0.00000236,0x00,0xFF
"SPI","result",24.73076738,0.00000236,0x00,0xF5
"SPI","result",24.73077074,0.00000236,0x00,0x00
"SPI","result",24.7307741,0.00000236,0x00,0x01
"SPI","disable",24.73077712,0.00000002,,
"SPI","enable",24.73077886,0.00000002,,
"SPI","result",24.73077936,0.00000236,0x7F,0xFF
"SPI","result",24.73078254,0.00000236,0x00,0xFF
"SPI","disable",24.73078524,0.00000002,,
"SPI","enable",24.73078586,0.00000002,,
"SPI","result",24.73078632,0.00000236,0xF2,0xFF
"SPI","result",24.73078962,0.00000236,0x00,0xFF
"SPI","result",24.73079298,0.00000236,0x00,0x01
"SPI","result",24.73079634,0.00000236,0x00,0xFF
"SPI","result",24.7307997,0.00000236,0x00,0xF5
"SPI","result",24.73080306,0.00000236,0x00,0x00
"SPI","result",24.73080642,0.00000236,0x00,0x01
"SPI","result",24.73080978,0.00000236,0x00,0xFF
"SPI","result",24.73081314,0.00000236,0x00,0x02
"SPI","result",24.7308165,0.00000236,0x00,0xFF
"SPI","result",24.73081986,0.00000236,0x00,0xF5
"SPI","result",24.73082322,0.00000236,0x00,0x00
"SPI","result",24.73082658,0.00000236,0x00,0x03
"SPI","disable",24.7308296,0.00000002,,
"SPI","enable",24.73083134,0.00000002,,
"SPI","result",24.73083184,0.00000236,0x7F,0xFF
"SPI","result",24.73083502,0.00000236,0x00,0xFF
"SPI","disable",24.73083772,0.00000002,,
"SPI","enable",24.73083834,0.00000002,,
"SPI","result",24.73083878,0.00000236,0xF2,0xFF
"SPI","result",24.7308421,0.00000236,0x00,0xFF
"SPI","result",24.73084546,0.00000236,0x00,0x04
"SPI","result",24.73084882,0.00000236,0x00,0xFF
"SPI","result",24.73085218,0.00000236,0x00,0xF7
"SPI","result",24.73085554,0.00000236,0x00,0x00
"SPI","result",24.7308589,0.00000236,0x00,0x05
"SPI","result",24.73086226,0.00000236,0x00,0xFF
"SPI","result",24.73086562,0.00000234,0x00,0x03
"SPI","result",24.73086896,0.00000236,0x00,0xFF
"SPI","result",24.73087232,0.00000236,0x00,0xF7
