name,type,start_time,duration,"mosi","miso"
"SPI","enable",23.94107414,0.00000002,,
"SPI","result",23.9410747,0.00000236,0x7F,0x00
"SPI","result",23.94107806,0.00000236,0x00,0x00
"SPI","disable",23.94108072,0.00000002,,
"SPI","enable",23.9410811,0.00000002,,
"SPI","result",23.9410817,0.00000236,0x06,0x00
"SPI","result",23.94108482,0.00000236,0x80,0x00
"SPI","disable",23.9410875,0.00000002,,
"SPI","enable",24.04111772,0.00000002,,
"SPI","result",24.04111836,0.00000236,0x7F,0x00
"SPI","result",24.04112158,0.00000236,0x00,0x00
"SPI","disable",24.04112424,0.00000002,,
"SPI","enable",24.04112462,0.00000002,,
"SPI","result",24.04112522,0.00000236,0x03,0x00
"SPI","result",24.04112836,0.00000236,0x10,0x00
"SPI","disable",24.04113104,0.00000002,,
"SPI","enable",24.04113248,0.00000002,,
"SPI","result",24.04113298,0.00000236,0x7F,0x00
"SPI","result",24.04113616,0.00000236,0x00,0x00
"SPI","disable",24.04113888,0.00000002,,
"SPI","enable",24.0411396,0.00000002,,
"SPI","result",24.04114004,0.00000236,0x80,0x00
"SPI","result",24.0411435,0.00000236,0x00,0xE0
"SPI","disable",24.0411465,0.00000002,,
"SPI","enable",24.04114818,0.00000002,,
"SPI","result",24.0411487,0.00000234,0x7F,0x00
"SPI","result",24.04115186,0.00000236,0x00,0x00
"SPI","disable",24.04115458,0.00000002,,
"SPI","enable",24.04115496,0.00000002,,
"SPI","result",24.04115546,0.00000236,0x06,0x00
"SPI","result",24.04115858,0.00000236,0x01,0x00
"SPI","disable",24.04116132,0.00000002,,
"SPI","enable",24.07120722,0.00000002,,
"SPI","result",24.07120784,0.00000236,0x7F,0x00
"SPI","result",24.07121108,0.00000236,0x00,0x00
"SPI","disable",24.07121374,0.00000002,,
"SPI","enable",24.07121412,0.00000002,,
"SPI","result",24.07121472,0.00000236,0x0F,0x00
"SPI","result",24.07121784,0.00000236,0xC0,0x00
"SPI","disable",24.07122052,0.00000002,,
"SPI","enable",24.07122258,0.00000002,,
"SPI","result",24.07122308,0.00000236,0x7F,0x00
"SPI","result",24.07122626,0.00000236,0x00,0x00
"SPI","disable",24.07122896,0.00000002,,
"SPI","enable",24.07122968,0.00000002,,
"SPI","result",24.07123014,0.00000236,0x80,0x00
"SPI","result",24.0712336,0.00000236,0x00,0xE0
"SPI","disable",24.0712366,0.00000002,,
"SPI","enable",24.07123912,0.00000002,,
"SPI","result",24.07123962,0.00000236,0x7F,0x00
"SPI","result",24.0712428,0.00000236,0x00,0x00
"SPI","disable",24.0712455,0.00000002,,
"SPI","enable",24.07124612,0.00000002,,
"SPI","result",24.07124658,0.00000234,0x86,0x00
"SPI","result",24.07124988,0.00000236,0x00,0x01
"SPI","disable",24.0712529,0.00000002,,
"SPI","enable",24.071255,0.00000002,,
"SPI","result",24.0712555,0.00000236,0x7F,0x00
"SPI","result",24.07125868,0.00000236,0x00,0x00
"SPI","disable",24.07126138,0.00000002,,
"SPI","enable",24.07126178,0.00000002,,
"SPI","result",24.07126228,0.00000236,0x06,0x00
"SPI","result",24.0712654,0.00000236,0x09,0x00
"SPI","disable",24.07126814,0.00000002,,
"SPI","enable",24.07126956,0.00000002,,
"SPI","result",24.07127006,0.00000236,0x7F,0x00
"SPI","result",24.07127324,0.00000236,0x00,0x00
"SPI","disable",24.07127594,0.00000002,,
"SPI","enable",24.07127632,0.00000002,,
"SPI","result",24.07127684,0.00000236,0x07,0x00
"SPI","result",24.07127996,0.00000236,0x00,0x00
"SPI","disable",24.07128268,0.00000002,,
"SPI","enable",24.07128618,0.00000002,,
"SPI","result",24.07128668,0.00000236,0x7F,0x00
"SPI","result",24.07128986,0.00000236,0x20,0x00
"SPI","disable",24.07129256,0.00000002,,
"SPI","enable",24.07129294,0.00000002,,
"SPI","result",24.07129344,0.00000236,0x00,0x00
"SPI","result",24.07129658,0.00000234,0x00,0x00
"SPI","disable",24.0712993,0.00000002,,
"SPI","enable",24.0713069,0.00000002,,
"SPI","result",24.0713074,0.00000236,0x7F,0x00
"SPI","result",24.07131058,0.00000236,0x20,0x00
"SPI","disable",24.07131328,0.00000002,,
"SPI","enable",24.07131368,0.00000002,,
"SPI","result",24.07131418,0.00000236,0x10,0x00
"SPI","result",24.0713173,0.00000236,0x00,0x00
"SPI","disable",24.07132004,0.00000002,,
"SPI","enable",24.07132156,0.00000002,,
"SPI","result",24.07132206,0.00000236,0x7F,0x00
"SPI","result",24.07132524,0.00000236,0x20,0x00
"SPI","disable",24.07132796,0.00000002,,
"SPI","enable",24.07132834,0.00000002,,
"SPI","result",24.07132884,0.00000236,0x11,0x00
"SPI","result",24.07133196,0.00000236,0x00,0x00
"SPI","disable",24.0713347,0.00000002,,
"SPI","enable",24.07134002,0.00000002,,
"SPI","result",24.07134052,0.00000236,0x7F,0x00
"SPI","result",24.0713437,0.00000236,0x20,0x00
"SPI","disable",24.07134642,0.00000002,,
"SPI","enable",24.07134704,0.00000002,,
"SPI","result",24.07134748,0.00000236,0x81,0x00
"SPI","result",24.07135078,0.00000236,0x00,0x01
"SPI","disable",24.0713538,0.00000002,,
"SPI","enable",24.07135548,0.00000002,,
"SPI","result",24.07135598,0.00000236,0x7F,0x00
"SPI","result",24.07135914,0.00000236,0x20,0x00
"SPI","disable",24.07136186,0.00000002,,
"SPI","enable",24.07136224,0.00000002,,
"SPI","result",24.07136274,0.00000236,0x01,0x00
"SPI","result",24.07136586,0.00000236,0x29,0x00
"SPI","disable",24.0713686,0.00000002,,
"SPI","enable",24.07137046,0.00000002,,
"SPI","result",24.07137098,0.00000236,0x7F,0x00
"SPI","result",24.07137414,0.00000236,0x20,0x00
"SPI","disable",24.07137686,0.00000002,,
"SPI","enable",24.07137748,0.00000002,,
"SPI","result",24.07137792,0.00000236,0x81,0x00
"SPI","result",24.07138124,0.00000236,0x00,0x29
"SPI","disable",24.07138426,0.00000002,,
"SPI","enable",24.07138586,0.00000002,,
"SPI","result",24.07138636,0.00000236,0x7F,0x00
"SPI","result",24.07138954,0.00000236,0x20,0x00
"SPI","disable",24.07139224,0.00000002,,
"SPI","enable",24.07139264,0.00000002,,
"SPI","result",24.07139314,0.00000236,0x01,0x00
"SPI","result",24.07139626,0.00000236,0x29,0x00
"SPI","disable",24.071399,0.00000002,,
"SPI","enable",24.0714008,0.00000002,,
"SPI","result",24.07140132,0.00000234,0x7F,0x00
"SPI","result",24.07140448,0.00000236,0x20,0x00
"SPI","disable",24.0714072,0.00000002,,
"SPI","enable",24.07140782,0.00000002,,
"SPI","result",24.07140826,0.00000236,0x81,0x00
"SPI","result",24.07141158,0.00000236,0x00,0x29
"SPI","disable",24.0714146,0.00000002,,
"SPI","enable",24.12143836,0.00000002,,
"SPI","result",24.12143898,0.00000236,0x7F,0x00
"SPI","result",24.12144222,0.00000236,0x00,0x00
"SPI","disable",24.12144486,0.00000002,,
"SPI","enable",24.12144526,0.00000002,,
"SPI","result",24.12144586,0.00000236,0x03,0x00
"SPI","result",24.12144898,0.00000236,0x40,0x00
"SPI","disable",24.12145166,0.00000002,,
"SPI","enable",24.12145324,0.00000002,,
"SPI","result",24.12145374,0.00000236,0x7F,0x00
"SPI","result",24.12145692,0.00000236,0x00,0x00
"SPI","disable",24.12145964,0.00000002,,
"SPI","enable",24.12146002,0.00000002,,
"SPI","result",24.12146052,0.00000236,0x69,0x00
"SPI","result",24.12146364,0.00000236,0x0F,0x00
"SPI","disable",24.12146638,0.00000002,,
"SPI","enable",24.1214679,0.00000002,,
"SPI","result",24.12146842,0.00000236,0x7F,0x00
"SPI","result",24.12147158,0.00000236,0x00,0x00
"SPI","disable",24.1214743,0.00000002,,
"SPI","enable",24.12147468,0.00000002,,
"SPI","result",24.12147518,0.00000236,0x67,0x00
"SPI","result",24.1214783,0.00000236,0x0E,0x00
"SPI","disable",24.12148104,0.00000002,,
"SPI","enable",24.12148258,0.00000002,,
"SPI","result",24.12148308,0.00000236,0x7F,0x00
"SPI","result",24.12148624,0.00000236,0x00,0x00
"SPI","disable",24.12148896,0.00000002,,
"SPI","enable",24.12148934,0.00000002,,
"SPI","result",24.12148984,0.00000236,0x68,0x00
"SPI","result",24.12149296,0.00000236,0x0F,0x00
"SPI","disable",24.1214957,0.00000002,,
"SPI","enable",24.12149724,0.00000002,,
"SPI","result",24.12149774,0.00000236,0x7F,0x00
"SPI","result",24.12150092,0.00000236,0x00,0x00
"SPI","disable",24.12150362,0.00000002,,
"SPI","enable",24.121504,0.00000002,,
"SPI","result",24.1215045,0.00000236,0x68,0x00
"SPI","result",24.12150762,0.00000236,0x00,0x00
"SPI","disable",24.12151036,0.00000002,,
"SPI","enable",24.1215119,0.00000002,,
"SPI","result",24.1215124,0.00000236,0x7F,0x00
"SPI","result",24.12151558,0.00000236,0x00,0x00
"SPI","disable",24.12151828,0.00000002,,
"SPI","enable",24.12151866,0.00000002,,
"SPI","result",24.12151916,0.00000236,0x03,0x00
"SPI","result",24.1215223,0.00000236,0x40,0x00
"SPI","disable",24.12152502,0.00000002,,
"SPI","enable",24.12653308,0.00000002,,
"SPI","result",24.12653362,0.00000236,0x7F,0x00
"SPI","result",24.12653688,0.00000236,0x00,0x00
"SPI","disable",24.12653954,0.00000002,,
"SPI","enable",24.12654026,0.00000002,,
"SPI","result",24.1265407,0.00000236,0xF0,0x00
"SPI","result",24.12654418,0.00000236,0x00,0x00
"SPI","result",24.12654754,0.00000236,0x00,0x24
"SPI","disable",24.12655056,0.00000002,,
"SPI","enable",24.13156802,0.00000002,,
"SPI","result",24.13156858,0.00000236,0x7F,0xFF
"SPI","result",24.13157184,0.00000236,0x00,0xFF
"SPI","disable",24.1315745,0.00000002,,
"SPI","enable",24.13157512,0.00000002,,
"SPI","result",24.13157556,0.00000236,0xF0,0xFF
"SPI","result",24.13157886,0.00000236,0x00,0x00
"SPI","result",24.13158222,0.00000236,0x00,0x48
"SPI","disable",24.13158524,0.00000002,,
"SPI","enable",24.13660334,0.00000002,,
"SPI","result",24.1366039,0.00000236,0x7F,0xFF
"SPI","result",24.13660716,0.00000236,0x00,0xFF
"SPI","disable",24.13660982,0.00000002,,
"SPI","enable",24.13661044,0.00000002,,
"SPI","result",24.13661088,0.00000236,0xF0,0xFF
"SPI","result",24.13661418,0.00000236,0x00,0x00
"SPI","result",24.13661754,0.00000236,0x00,0x6C
"SPI","disable",24.13662056,0.00000002,,
"SPI","enable",24.1416387,0.00000002,,
"SPI","result",24.14163924,0.00000236,0x7F,0xFF
"SPI","result",24.1416425,0.00000236,0x00,0xFF
"SPI","disable",24.14164516,0.00000002,,
"SPI","enable",24.14164578,0.00000002,,
"SPI","result",24.14164622,0.00000236,0xF0,0xFF
"SPI","result",24.14164954,0.00000236,0x00,0x00
"SPI","result",24.1416529,0.00000236,0x00,0x90
"SPI","disable",24.14165592,0.00000002,,
"SPI","enable",24.14667402,0.00000002,,
"SPI","result",24.14667456,0.00000236,0x7F,0xFF
"SPI","result",24.14667782,0.00000236,0x00,0xFF
"SPI","disable",24.14668048,0.00000002,,
"SPI","enable",24.1466811,0.00000002,,
"SPI","result",24.14668154,0.00000236,0xF0,0xFF
"SPI","result",24.14668486,0.00000236,0x00,0x00
"SPI","result",24.14668822,0.00000236,0x00,0xAE
"SPI","disable",24.14669124,0.00000002,,
"SPI","enable",24.15171092,0.00000002,,
"SPI","result",24.15171156,0.00000236,0x7F,0xFF
"SPI","result",24.15171478,0.00000236,0x00,0xFF
"SPI","disable",24.15171744,0.00000002,,
"SPI","enable",24.15171816,0.00000002,,
"SPI","result",24.1517186,0.00000236,0xF0,0xFF
"SPI","result",24.15172208,0.00000236,0x00,0x00
"SPI","result",24.15172544,0.00000236,0x00,0xD2
"SPI","disable",24.15172846,0.00000002,,
"SPI","enable",24.15674466,0.00000002,,
"SPI","result",24.1567452,0.00000236,0x7F,0xFF
"SPI","result",24.15674846,0.00000236,0x00,0xFF
"SPI","disable",24.15675112,0.00000002,,
"SPI","enable",24.15675174,0.00000002,,
"SPI","result",24.15675218,0.00000236,0xF0,0xFF
"SPI","result",24.1567555,0.00000236,0x00,0x00
"SPI","result",24.15675886,0.00000234,0x00,0xF6
"SPI","disable",24.15676188,0.00000002,,
"SPI","enable",24.1617799,0.00000002,,
"SPI","result",24.16178044,0.00000236,0x7F,0xFF
"SPI","result",24.1617837,0.00000236,0x00,0xFF
"SPI","disable",24.16178636,0.00000002,,
"SPI","enable",24.16178698,0.00000002,,
"SPI","result",24.16178742,0.00000236,0xF0,0xFF
"SPI","result",24.16179074,0.00000236,0x00,0x01
"SPI","result",24.1617941,0.00000236,0x00,0x1A
"SPI","disable",24.16179712,0.00000002,,
"SPI","enable",24.16681524,0.00000002,,
"SPI","result",24.1668158,0.00000236,0x7F,0xFF
"SPI","result",24.16681904,0.00000236,0x00,0xFF
"SPI","disable",24.1668217,0.00000002,,
"SPI","enable",24.16682232,0.00000002,,
"SPI","result",24.16682278,0.00000236,0xF0,0xFF
"SPI","result",24.16682608,0.00000236,0x00,0x01
"SPI","result",24.16682944,0.00000236,0x00,0x3E
"SPI","disable",24.16683246,0.00000002,,
"SPI","enable",24.17185056,0.00000002,,
"SPI","result",24.17185112,0.00000236,0x7F,0xFF
"SPI","result",24.17185436,0.00000236,0x00,0xFF
"SPI","disable",24.17185702,0.00000002,,
"SPI","enable",24.17185764,0.00000002,,
"SPI","result",24.1718581,0.00000234,0xF0,0xFF
"SPI","result",24.1718614,0.00000236,0x00,0x01
"SPI","result",24.17186476,0.00000236,0x00,0x5C
"SPI","disable",24.17186778,0.00000002,,
"SPI","enable",24.17688588,0.00000002,,
"SPI","result",24.17688644,0.00000234,0x7F,0xFF
"SPI","result",24.17688968,0.00000236,0x00,0xFF
"SPI","disable",24.17689234,0.00000002,,
"SPI","enable",24.17689296,0.00000002,,
"SPI","result",24.17689342,0.00000234,0xF0,0xFF
"SPI","result",24.17689672,0.00000236,0x00,0x01
"SPI","result",24.17690008,0.00000236,0x00,0x80
"SPI","disable",24.1769031,0.00000002,,
"SPI","enable",24.18192278,0.00000002,,
"SPI","result",24.18192342,0.00000236,0x7F,0xFF
"SPI","result",24.18192664,0.00000236,0x00,0xFF
"SPI","disable",24.1819293,0.00000002,,
"SPI","enable",24.18193002,0.00000002,,
"SPI","result",24.18193048,0.00000236,0xF0,0xFF
"SPI","result",24.18193394,0.00000236,0x00,0x01
"SPI","result",24.1819373,0.00000236,0x00,0xA4
"SPI","disable",24.18194032,0.00000002,,
"SPI","enable",24.18695652,0.00000002,,
"SPI","result",24.18695708,0.00000234,0x7F,0xFF
"SPI","result",24.18696032,0.00000236,0x00,0xFF
"SPI","disable",24.18696298,0.00000002,,
"SPI","enable",24.1869636,0.00000002,,
"SPI","result",24.18696404,0.00000236,0xF0,0xFF
"SPI","result",24.18696736,0.00000236,0x00,0x01
"SPI","result",24.18697072,0.00000236,0x00,0xC8
"SPI","disable",24.18697374,0.00000002,,
"SPI","enable",24.19199176,0.00000002,,
"SPI","result",24.19199232,0.00000234,0x7F,0xFF
"SPI","result",24.19199556,0.00000236,0x00,0xFF
"SPI","disable",24.19199822,0.00000002,,
"SPI","enable",24.19199884,0.00000002,,
"SPI","result",24.1919993,0.00000234,0xF0,0xFF
"SPI","result",24.1920026,0.00000236,0x00,0x01
"SPI","result",24.19200596,0.00000236,0x00,0xEC
"SPI","disable",24.19200898,0.00000002,,
"SPI","enable",24.1970271,0.00000002,,
"SPI","result",24.19702766,0.00000236,0x7F,0xFF
"SPI","result",24.19703092,0.00000236,0x00,0xFF
"SPI","disable",24.19703356,0.00000002,,
"SPI","enable",24.19703418,0.00000002,,
"SPI","result",24.19703464,0.00000236,0xF0,0xFF
"SPI","result",24.19703794,0.00000236,0x00,0x02
"SPI","result",24.1970413,0.00000236,0x00,0x0A
"SPI","disable",24.19704432,0.00000002,,
"SPI","enable",24.20206242,0.00000002,,
"SPI","result",24.20206298,0.00000236,0x7F,0xFF
"SPI","result",24.20206624,0.00000236,0x00,0xFF
"SPI","disable",24.20206888,0.00000002,,
"SPI","enable",24.2020695,0.00000002,,
"SPI","result",24.20206996,0.00000236,0xF0,0xFF
"SPI","result",24.20207326,0.00000236,0x00,0x02
"SPI","result",24.20207662,0.00000236,0x00,0x2E
"SPI","disable",24.20207964,0.00000002,,
"SPI","enable",24.20709774,0.00000002,,
"SPI","result",24.2070983,0.00000236,0x7F,0xFF
"SPI","result",24.20710156,0.00000234,0x00,0xFF
"SPI","disable",24.2071042,0.00000002,,
"SPI","enable",24.20710482,0.00000002,,
"SPI","result",24.20710528,0.00000236,0xF0,0xFF
"SPI","result",24.20710858,0.00000236,0x00,0x02
"SPI","result",24.20711194,0.00000236,0x00,0x52
"SPI","disable",24.20711496,0.00000002,,
"SPI","enable",24.21213466,0.00000002,,
"SPI","result",24.21213528,0.00000236,0x7F,0xFF
"SPI","result",24.21213852,0.00000234,0x00,0xFF
"SPI","disable",24.21214116,0.00000002,,
"SPI","enable",24.21214188,0.00000002,,
"SPI","result",24.21214234,0.00000236,0xF0,0xFF
"SPI","result",24.2121458,0.00000236,0x00,0x02
"SPI","result",24.21214916,0.00000236,0x00,0x76
"SPI","disable",24.21215218,0.00000002,,
"SPI","enable",24.21716826,0.00000002,,
"SPI","result",24.2171688,0.00000236,0x7F,0xFF
"SPI","result",24.21717206,0.00000236,0x00,0xFF
"SPI","disable",24.21717472,0.00000002,,
"SPI","enable",24.21717534,0.00000002,,
"SPI","result",24.21717578,0.00000236,0xF0,0xFF
"SPI","result",24.2171791,0.00000234,0x00,0x02
"SPI","result",24.21718246,0.00000234,0x00,0x9A
"SPI","disable",24.21718548,0.00000002,,
"SPI","enable",24.22220362,0.00000002,,
"SPI","result",24.22220418,0.00000236,0x7F,0xFF
"SPI","result",24.22220744,0.00000236,0x00,0xFF
"SPI","disable",24.22221008,0.00000002,,
"SPI","enable",24.2222107,0.00000002,,
"SPI","result",24.22221116,0.00000236,0xF0,0xFF
"SPI","result",24.22221446,0.00000236,0x00,0x02
"SPI","result",24.22221782,0.00000236,0x00,0xB8
"SPI","disable",24.22222084,0.00000002,,
"SPI","enable",24.22723896,0.00000002,,
"SPI","result",24.22723952,0.00000236,0x7F,0xFF
"SPI","result",24.22724278,0.00000236,0x00,0xFF
"SPI","disable",24.22724544,0.00000002,,
"SPI","enable",24.22724606,0.00000002,,
"SPI","result",24.2272465,0.00000236,0xF0,0xFF
"SPI","result",24.2272498,0.00000236,0x00,0x02
"SPI","result",24.22725316,0.00000236,0x00,0xDC
"SPI","disable",24.22725618,0.00000002,,
"SPI","enable",24.23227428,0.00000002,,
"SPI","result",24.23227484,0.00000236,0x7F,0xFF
"SPI","result",24.2322781,0.00000236,0x00,0xFF
"SPI","disable",24.23228076,0.00000002,,
"SPI","enable",24.23228138,0.00000002,,
"SPI","result",24.23228182,0.00000236,0xF0,0xFF
"SPI","result",24.23228512,0.00000236,0x00,0x03
"SPI","result",24.23228848,0.00000236,0x00,0x00
"SPI","disable",24.2322915,0.00000002,,
"SPI","enable",24.2373096,0.00000002,,
"SPI","result",24.23731016,0.00000236,0x7F,0xFF
"SPI","result",24.23731342,0.00000236,0x00,0xFF
"SPI","disable",24.23731608,0.00000002,,
"SPI","enable",24.2373167,0.00000002,,
"SPI","result",24.23731714,0.00000236,0xF0,0xFF
"SPI","result",24.23732044,0.00000236,0x00,0x03
"SPI","result",24.2373238,0.00000236,0x00,0x24
"SPI","disable",24.23732682,0.00000002,,
"SPI","enable",24.24234652,0.00000002,,
"SPI","result",24.24234714,0.00000236,0x7F,0xFF
"SPI","result",24.24235038,0.00000236,0x00,0xFF
"SPI","disable",24.24235304,0.00000002,,
"SPI","enable",24.24235376,0.00000002,,
"SPI","result",24.2423542,0.00000236,0xF0,0xFF
"SPI","result",24.24235766,0.00000236,0x00,0x03
"SPI","result",24.24236102,0.00000236,0x00,0x42
"SPI","disable",24.24236404,0.00000002,,
"SPI","enable",24.24738024,0.00000002,,
"SPI","result",24.2473808,0.00000236,0x7F,0xFF
"SPI","result",24.24738406,0.00000236,0x00,0xFF
"SPI","disable",24.2473867,0.00000002,,
"SPI","enable",24.24738732,0.00000002,,
"SPI","result",24.24738778,0.00000236,0xF0,0xFF
"SPI","result",24.24739108,0.00000236,0x00,0x03
"SPI","result",24.24739444,0.00000236,0x00,0x66
"SPI","disable",24.24739746,0.00000002,,
"SPI","enable",24.25241548,0.00000002,,
"SPI","result",24.25241604,0.00000236,0x7F,0xFF
"SPI","result",24.2524193,0.00000236,0x00,0xFF
"SPI","disable",24.25242196,0.00000002,,
"SPI","enable",24.25242258,0.00000002,,
"SPI","result",24.25242302,0.00000236,0xF0,0xFF
"SPI","result",24.25242632,0.00000236,0x00,0x03
"SPI","result",24.25242968,0.00000236,0x00,0x8A
"SPI","disable",24.2524327,0.00000002,,
"SPI","enable",24.25745084,0.00000002,,
"SPI","result",24.25745138,0.00000236,0x7F,0xFF
"SPI","result",24.25745464,0.00000236,0x00,0xFF
"SPI","disable",24.2574573,0.00000002,,
"SPI","enable",24.25745792,0.00000002,,
"SPI","result",24.25745836,0.00000236,0xF0,0xFF
"SPI","result",24.25746168,0.00000236,0x00,0x03
"SPI","result",24.25746504,0.00000236,0x00,0xAE
"SPI","disable",24.25746806,0.00000002,,
"SPI","enable",24.26248616,0.00000002,,
"SPI","result",24.2624867,0.00000236,0x7F,0xFF
"SPI","result",24.26248996,0.00000236,0x00,0xFF
"SPI","disable",24.26249262,0.00000002,,
"SPI","enable",24.26249324,0.00000002,,
"SPI","result",24.26249368,0.00000236,0xF0,0xFF
"SPI","result",24.262497,0.00000236,0x00,0x03
"SPI","result",24.26250036,0.00000236,0x00,0xD2
"SPI","disable",24.26250338,0.00000002,,
"SPI","enable",24.26752148,0.00000002,,
"SPI","result",24.26752202,0.00000236,0x7F,0xFF
"SPI","result",24.26752528,0.00000236,0x00,0xFF
"SPI","disable",24.26752794,0.00000002,,
"SPI","enable",24.26752856,0.00000002,,
"SPI","result",24.267529,0.00000236,0xF0,0xFF
"SPI","result",24.26753232,0.00000236,0x00,0x03
"SPI","result",24.26753568,0.00000236,0x00,0xF0
"SPI","disable",24.2675387,0.00000002,,
"SPI","enable",24.27255838,0.00000002,,
"SPI","result",24.27255902,0.00000236,0x7F,0xFF
"SPI","result",24.27256224,0.00000236,0x00,0xFF
"SPI","disable",24.2725649,0.00000002,,
"SPI","enable",24.27256562,0.00000002,,
